(1654094102.091305) can0 0CBE1101#100A010000000012
(1654094102.092083) can0 0CBE1101#216667A8A9000012
(1654094102.093090) can0 0CBE0111#0581AAAA10001266
(1654094102.096719) can0 0CBE1101#100901000000001A
(1654094102.097360) can0 0CBE1101#21525C5D0000001A
(1654094102.097731) can0 32E#014B4B000000004B
(1654094102.098416) can0 0CBE0111#0481800000001A52
(1654094102.102371) can0 0CBE1101#100A0100000000E2
(1654094102.103127) can0 0CBE1101#21CCCDCECF0000E2
(1654094102.104078) can0 0CBE0111#058100000000E2CC
(1654094102.107306) can0 32E#014B4B000000004B
(1654094102.108399) can0 0CBE1101#10230100000000F8
(1654094102.109119) can0 0CBE1101#213031363744454C
(1654094102.109873) can0 0CBE1101#224D4E4F50515A5B
(1654094102.110615) can0 0CBE1101#235C5D646A6B7C7D
(1654094102.111383) can0 0CBE1101#249E9FA0A1D8D9DA
(1654094102.112104) can0 0CBE1101#25DB9FA0A1D8D9DA
(1654094102.113356) can0 0CBE0111#101E81FEFF1F54FE
(1654094102.113687) can0 0CBE0111#214BF490967FE0FA
(1654094102.114015) can0 0CBE0111#220000EE8EF0A84E
(1654094102.114355) can0 0CBE0111#230000F5A82E0E00
(1654094102.114681) can0 0CBE0111#24800080A1D8D9DA
(1654094102.117276) can0 32E#014B4B000000004B
(1654094102.120680) can0 0CBE1101#100A0100000000F9
(1654094102.121367) can0 0CBE1101#21BABBBCBD0000F9
(1654094102.122334) can0 0CBE0111#058100000000F9BA
(1654094102.126243) can0 0CBE1101#10090100000000FA
(1654094102.126884) can0 0CBE1101#2164656C000000FA
(1654094102.127248) can0 32E#014B4B000000004B
(1654094102.128003) can0 0CBE0111#048100000000FA64
(1654094102.132286) can0 0CBE1101#100E0100000000FD
(1654094102.133152) can0 0CBE1101#2120242526404243
(1654094102.133878) can0 0CBE1101#224D242526404243
(1654094102.134970) can0 0CBE0111#1009814004000080
(1654094102.135294) can0 0CBE0111#2184C04026404243
(1654094102.137265) can0 32E#014B4B000000004B
(1654094102.138626) can0 0CBE1101#100A010000000012
(1654094102.139409) can0 0CBE1101#216667A8A9000012
(1654094102.140609) can0 0CBE0111#0581AAAA10001266
(1654094102.144389) can0 0CBE1101#100901000000001A
(1654094102.145169) can0 0CBE1101#21525C5D0000001A
(1654094102.146281) can0 0CBE0111#0481800000001A52
(1654094102.148247) can0 32E#014B4B000000004B
(1654094102.150393) can0 0CBE1101#100A0100000000E2
(1654094102.151177) can0 0CBE1101#21CCCDCECF0000E2
(1654094102.152292) can0 0CBE0111#058100000000E2CC
(1654094102.156247) can0 0CBE1101#10230100000000F8
(1654094102.156955) can0 0CBE1101#213031363744454C
(1654094102.157623) can0 32E#014B4B000000004B
(1654094102.157892) can0 0CBE1101#224D4E4F50515A5B
(1654094102.158451) can0 0CBE1101#235C5D646A6B7C7D
(1654094102.159206) can0 0CBE1101#249E9FA0A1D8D9DA
(1654094102.159939) can0 0CBE1101#25DB9FA0A1D8D9DA
(1654094102.160892) can0 0CBE0111#101E81FEFF1F54FE
(1654094102.161221) can0 0CBE0111#214BF490967FE0FA
(1654094102.161551) can0 0CBE0111#220000EE8EF0A84E
(1654094102.161891) can0 0CBE0111#230000F5A82E0E00
(1654094102.162217) can0 0CBE0111#24800080A1D8D9DA
(1654094102.167313) can0 32E#014B4B000000004B
(1654094102.168708) can0 0CBE1101#100A0100000000F9
(1654094102.169470) can0 0CBE1101#21BABBBCBD0000F9
(1654094102.170533) can0 0CBE0111#058100000000F9BA
(1654094102.174254) can0 0CBE1101#10090100000000FA
(1654094102.174963) can0 0CBE1101#2164656C000000FA
(1654094102.176201) can0 0CBE0111#048100000000FA64
(1654094102.177353) can0 32E#014C4C000000004C
(1654094102.179708) can0 0CBE1101#100E0100000000FD
(1654094102.180499) can0 0CBE1101#2120242526404243
(1654094102.181200) can0 0CBE1101#224D242526404243
(1654094102.182173) can0 0CBE0111#1009814004000080
(1654094102.182496) can0 0CBE0111#2184C04026404243
(1654094102.185258) can0 0CBE1101#100A010000000012
(1654094102.185990) can0 0CBE1101#216667A8A9000012
(1654094102.187146) can0 0CBE0111#0581AAAA10001266
(1654094102.187386) can0 32E#014C4C000000004C
(1654094102.191305) can0 0CBE1101#100901000000001A
(1654094102.192005) can0 0CBE1101#21525C5D0000001A
(1654094102.193140) can0 0CBE0111#0481810000001A52
(1654094102.197384) can0 32E#014C4C000000004C
(1654094102.197666) can0 0CBE1101#100A0100000000E2
(1654094102.198258) can0 0CBE1101#21CCCDCECF0000E2
(1654094102.199452) can0 0CBE0111#058100000000E2CC
(1654094102.203020) can0 0CBE1101#10230100000000F8
(1654094102.203764) can0 0CBE1101#213031363744454C
(1654094102.204523) can0 0CBE1101#224D4E4F50515A5B
(1654094102.205285) can0 0CBE1101#235C5D646A6B7C7D
(1654094102.206021) can0 0CBE1101#249E9FA0A1D8D9DA
(1654094102.206748) can0 0CBE1101#25DB9FA0A1D8D9DA
(1654094102.207761) can0 0CBE0111#101E81FEFF1F54FE
(1654094102.208092) can0 0CBE0111#214BF490967FE0FA
(1654094102.208427) can0 0CBE0111#220000EE8EF0CA4E
(1654094102.208663) can0 32E#014B4B000000004B
(1654094102.208945) can0 0CBE0111#230000F5A82E0E00
(1654094102.209419) can0 0CBE0111#24800080A1D8D9DA
(1654094102.214656) can0 0CBE1101#100A0100000000F9
(1654094102.215275) can0 0CBE1101#21BABBBCBD0000F9
(1654094102.216407) can0 0CBE0111#058100000000F9BA
(1654094102.218051) can0 32E#014B4B000000004B
(1654094102.220092) can0 0CBE1101#10090100000000FA
(1654094102.220801) can0 0CBE1101#2164656C000000FA
(1654094102.222057) can0 0CBE0111#048100000000FA64
(1654094102.225586) can0 0CBE1101#100E0100000000FD
(1654094102.226307) can0 0CBE1101#2120242526404243
(1654094102.227033) can0 0CBE1101#224D242526404243
(1654094102.227607) can0 32E#014B4B000000004B
(1654094102.228053) can0 0CBE0111#1009814004000080
(1654094102.228409) can0 0CBE0111#2184C04026404243
(1654094102.231272) can0 0CBE1101#100A010000000012
(1654094102.232052) can0 0CBE1101#216667A8A9000012
(1654094102.233019) can0 0CBE0111#0581AAAA10001266
(1654094102.236696) can0 0CBE1101#100901000000001A
(1654094102.237432) can0 32E#014B4B000000004B
(1654094102.237712) can0 0CBE1101#21525C5D0000001A
(1654094102.238678) can0 0CBE0111#0481800000001A52
(1654094102.242273) can0 0CBE1101#100A0100000000E2
(1654094102.243076) can0 0CBE1101#21CCCDCECF0000E2
(1654094102.244329) can0 0CBE0111#058100000000E2CC
(1654094102.247534) can0 32E#014B4B000000004B
(1654094102.248489) can0 0CBE1101#10230100000000F8
(1654094102.249342) can0 0CBE1101#213031363744454C
(1654094102.250103) can0 0CBE1101#224D4E4F50515A5B
(1654094102.250858) can0 0CBE1101#235C5D646A6B7C7D
(1654094102.251594) can0 0CBE1101#249E9FA0A1D8D9DA
(1654094102.252327) can0 0CBE1101#25DB9FA0A1D8D9DA
(1654094102.253300) can0 0CBE0111#101E81FEFF1F54FE
(1654094102.253632) can0 0CBE0111#214BF490967FE0FA
(1654094102.253960) can0 0CBE0111#220000EE8EF0A84E
(1654094102.254300) can0 0CBE0111#230000F5A82E0E00
(1654094102.254627) can0 0CBE0111#24800080A1D8D9DA
(1654094102.257463) can0 32E#014B4B000000004B
(1654094102.260695) can0 0CBE1101#100A0100000000F9
(1654094102.261363) can0 0CBE1101#21BABBBCBD0000F9
(1654094102.262612) can0 0CBE0111#058100000000F9BA
(1654094102.266382) can0 0CBE1101#10090100000000FA
(1654094102.267111) can0 0CBE1101#2164656C000000FA
(1654094102.268270) can0 0CBE0111#048100000000FA64
(1654094102.268547) can0 32E#014B4B000000004B
(1654094102.272215) can0 0CBE1101#100E0100000000FD
(1654094102.272889) can0 0CBE1101#2120242526404243
(1654094102.273615) can0 0CBE1101#224D242526404243
(1654094102.274583) can0 0CBE0111#1009814004000080
(1654094102.274907) can0 0CBE0111#2184C04026404243
(1654094102.278116) can0 32E#014C4C000000004C
(1654094102.278589) can0 0CBE1101#100A010000000012
(1654094102.279389) can0 0CBE1101#216667A8A9000012
(1654094102.280554) can0 0CBE0111#0581AAAA10001266
(1654094102.284390) can0 0CBE1101#100901000000001A
(1654094102.285150) can0 0CBE1101#21525C5D0000001A
(1654094102.286219) can0 0CBE0111#0481810000001A52
(1654094102.287687) can0 32E#014C4C000000004C
(1654094102.289845) can0 0CBE1101#100A0100000000E2
(1654094102.290652) can0 0CBE1101#21CCCDCECF0000E2
(1654094102.291861) can0 0CBE0111#058100000000E2CC
(1654094102.295633) can0 0CBE1101#10230100000000F8
(1654094102.296422) can0 0CBE1101#213031363744454C
(1654094102.297180) can0 0CBE1101#224D4E4F50515A5B
(1654094102.297586) can0 32E#014C4C000000004C
(1654094102.297918) can0 0CBE1101#235C5D646A6B7C7D
(1654094102.298678) can0 0CBE1101#249E9FA0A1D8D9DA
(1654094102.299406) can0 0CBE1101#25DB9FA0A1D8D9DA
(1654094102.300522) can0 0CBE0111#101E81CAFF445428
(1654094102.300846) can0 0CBE0111#214C7C8F967FE0FA
(1654094102.301166) can0 0CBE0111#220000EE8EF0B44E
(1654094102.301547) can0 0CBE0111#230000F5A82E0E00
(1654094102.301837) can0 0CBE0111#24800080A1D8D9DA
(1654094102.307618) can0 32E#014B4B000000004B
(1654094102.307900) can0 0CBE1101#100A0100000000F9
(1654094102.308687) can0 0CBE1101#21BABBBCBD0000F9
(1654094102.309815) can0 0CBE0111#058100000000F9BA
(1654094102.313269) can0 0CBE1101#10090100000000FA
(1654094102.313933) can0 0CBE1101#2164656C000000FA
(1654094102.315133) can0 0CBE0111#048100000000FA64
(1654094102.317624) can0 32E#014B4B000000004B
(1654094102.319287) can0 0CBE1101#100E0100000000FD
(1654094102.319974) can0 0CBE1101#2120242526404243
(1654094102.320697) can0 0CBE1101#224D242526404243
(1654094102.321787) can0 0CBE0111#1009814004000080
(1654094102.322109) can0 0CBE0111#2184C04026404243
(1654094102.325437) can0 0CBE1101#100A010000000012
(1654094102.326211) can0 0CBE1101#216667A8A9000012
(1654094102.327432) can0 0CBE0111#0581AAAA10001266
(1654094102.327673) can0 32E#014B4B000000004B
(1654094102.331376) can0 0CBE1101#100901000000001A
(1654094102.332216) can0 0CBE1101#21525C5D0000001A
(1654094102.333414) can0 0CBE0111#0481800000001A52
(1654094102.337812) can0 0CBE1101#100A0100000000E2
(1654094102.338304) can0 32E#014B4B000000004B
(1654094102.338580) can0 0CBE1101#21CCCDCECF0000E2
(1654094102.339730) can0 0CBE0111#058100000000E2CC
(1654094102.343397) can0 0CBE1101#10230100000000F8
(1654094102.344250) can0 0CBE1101#213031363744454C
(1654094102.345014) can0 0CBE1101#224D4E4F50515A5B
(1654094102.345752) can0 0CBE1101#235C5D646A6B7C7D
(1654094102.346506) can0 0CBE1101#249E9FA0A1D8D9DA
(1654094102.347234) can0 0CBE1101#25DB9FA0A1D8D9DA
(1654094102.347832) can0 32E#014B4B000000004B
(1654094102.348373) can0 0CBE0111#101E81CAFF1F54FE
(1654094102.348708) can0 0CBE0111#214BF490967FE0FA
(1654094102.349038) can0 0CBE0111#220000EE8EF0C04E
(1654094102.349376) can0 0CBE0111#230000F5A82E0E00
(1654094102.349710) can0 0CBE0111#24800080A1D8D9DA
(1654094102.355013) can0 0CBE1101#100A0100000000F9
(1654094102.355768) can0 0CBE1101#21BABBBCBD0000F9
(1654094102.357017) can0 0CBE0111#058100000000F9BA
(1654094102.357656) can0 32E#014B4B000000004B
(1654094102.361409) can0 0CBE1101#10090100000000FA
(1654094102.362271) can0 0CBE1101#2164656C000000FA
(1654094102.363333) can0 0CBE0111#048100000000FA64
(1654094102.367434) can0 0CBE1101#100E0100000000FD
(1654094102.367717) can0 32E#014B4B000000004B
(1654094102.368289) can0 0CBE1101#2120242526404243
(1654094102.369009) can0 0CBE1101#224D242526404243
(1654094102.369987) can0 0CBE0111#1009814004000080
(1654094102.370309) can0 0CBE0111#2184C04026404243
(1654094102.372896) can0 0CBE1101#100A010000000012
(1654094102.373531) can0 0CBE1101#216667A8A9000012
(1654094102.374645) can0 0CBE0111#0581AAAA10001266
(1654094102.377692) can0 32E#014B4B000000004B
(1654094102.378269) can0 0CBE1101#100901000000001A
(1654094102.379043) can0 0CBE1101#21525C5D0000001A
(1654094102.380284) can0 0CBE0111#0481800000001A52
(1654094102.384298) can0 0CBE1101#100A0100000000E2
(1654094102.385057) can0 0CBE1101#21CCCDCECF0000E2
(1654094102.386268) can0 0CBE0111#058100000000E2CC
(1654094102.387715) can0 32E#014B4B000000004B
(1654094102.390325) can0 0CBE1101#10230100000000F8
(1654094102.391094) can0 0CBE1101#213031363744454C
(1654094102.391818) can0 0CBE1101#224D4E4F50515A5B
(1654094102.392584) can0 0CBE1101#235C5D646A6B7C7D
(1654094102.393340) can0 0CBE1101#249E9FA0A1D8D9DA
(1654094102.394054) can0 0CBE1101#25DB9FA0A1D8D9DA
(1654094102.395238) can0 0CBE0111#101E81CAFF1F54CB
(1654094102.395584) can0 0CBE0111#214BF490967FE0FA
(1654094102.395900) can0 0CBE0111#220000EE8EF0A84E
(1654094102.396242) can0 0CBE0111#230000F5A82E0E00
(1654094102.396568) can0 0CBE0111#24800080A1D8D9DA
(1654094102.398358) can0 32E#014B4B000000004B
(1654094102.402415) can0 0CBE1101#100A0100000000F9
(1654094102.403078) can0 0CBE1101#21BABBBCBD0000F9
(1654094102.404221) can0 0CBE0111#058100000000F9BA
(1654094102.407988) can0 32E#014B4B000000004B
(1654094102.408569) can0 0CBE1101#10090100000000FA
(1654094102.409340) can0 0CBE1101#2164656C000000FA
(1654094102.410543) can0 0CBE0111#048100000000FA64
(1654094102.414181) can0 0CBE1101#100E0100000000FD
(1654094102.414889) can0 0CBE1101#2120242526404243
(1654094102.415585) can0 0CBE1101#224D242526404243
(1654094102.416863) can0 0CBE0111#1009814004000080
(1654094102.417185) can0 0CBE0111#2184C04026404243
(1654094102.417777) can0 32E#014B4B000000004B
(1654094102.420263) can0 0CBE1101#100A010000000012
(1654094102.421123) can0 0CBE1101#216667A8A9000012
(1654094102.422163) can0 0CBE0111#0581AAAA10001266
(1654094102.425904) can0 0CBE1101#100901000000001A
(1654094102.426635) can0 0CBE1101#21525C5D0000001A
(1654094102.427825) can0 0CBE0111#0481800000001A52
(1654094102.428062) can0 32E#014B4B000000004B
(1654094102.432366) can0 0CBE1101#100A0100000000E2
(1654094102.433150) can0 0CBE1101#21CCCDCECF0000E2
(1654094102.434141) can0 0CBE0111#058100000000E2CC
(1654094102.437776) can0 32E#014B4B000000004B
(1654094102.438473) can0 0CBE1101#10230100000000F8
(1654094102.439157) can0 0CBE1101#213031363744454C
(1654094102.439905) can0 0CBE1101#224D4E4F50515A5B
(1654094102.440672) can0 0CBE1101#235C5D646A6B7C7D
(1654094102.441403) can0 0CBE1101#249E9FA0A1D8D9DA
(1654094102.442132) can0 0CBE1101#25DB9FA0A1D8D9DA
(1654094102.443110) can0 0CBE0111#101E81CAFF1F54FE
(1654094102.443446) can0 0CBE0111#214BF490967FE0FA
(1654094102.443768) can0 0CBE0111#220000EE8EF09C4E
(1654094102.444115) can0 0CBE0111#230000F5A82E0E00
(1654094102.444442) can0 0CBE0111#24800080A1D8D9DA
(1654094102.447971) can0 32E#014B4B000000004B
(1654094102.450124) can0 0CBE1101#100A0100000000F9
(1654094102.450928) can0 0CBE1101#21BABBBCBD0000F9
(1654094102.452089) can0 0CBE0111#058100000000F9BA
(1654094102.455752) can0 0CBE1101#10090100000000FA
(1654094102.456414) can0 0CBE1101#2164656C000000FA
(1654094102.457406) can0 0CBE0111#048100000000FA64
(1654094102.458428) can0 32E#014B4B000000004B
(1654094102.461385) can0 0CBE1101#100E0100000000FD
(1654094102.462194) can0 0CBE1101#2120242526404243
(1654094102.462920) can0 0CBE1101#224D242526404243
(1654094102.464059) can0 0CBE0111#1009814004000080
(1654094102.464389) can0 0CBE0111#2184C04026404243
(1654094102.467494) can0 0CBE1101#100A010000000012
(1654094102.468075) can0 32E#014B4B000000004B
(1654094102.468356) can0 0CBE1101#216667A8A9000012
(1654094102.469364) can0 0CBE0111#0581AAAA10001266
(1654094102.472925) can0 0CBE1101#100901000000001A
(1654094102.473704) can0 0CBE1101#21525C5D0000001A
(1654094102.474696) can0 0CBE0111#0481810000001A52
(1654094102.477831) can0 32E#014B4B000000004B
(1654094102.479445) can0 0CBE1101#100A0100000000E2
(1654094102.480211) can0 0CBE1101#21CCCDCECF0000E2
(1654094102.481337) can0 0CBE0111#058100000000E2CC
(1654094102.485192) can0 0CBE1101#10230100000000F8
(1654094102.485981) can0 0CBE1101#213031363744454C
(1654094102.486723) can0 0CBE1101#224D4E4F50515A5B
(1654094102.487489) can0 0CBE1101#235C5D646A6B7C7D
(1654094102.487945) can0 32E#014B4B000000004B
(1654094102.488252) can0 0CBE1101#249E9FA0A1D8D9DA
(1654094102.488949) can0 0CBE1101#25DB9FA0A1D8D9DA
(1654094102.489984) can0 0CBE0111#101E81FEFFFB53A1
(1654094102.490315) can0 0CBE0111#214BF490B27FE0FA
(1654094102.490644) can0 0CBE0111#220000EE8EF0A84E
(1654094102.490979) can0 0CBE0111#230000F5A82E0E00
(1654094102.491305) can0 0CBE0111#24800080A1D8D9DA
(1654094102.497754) can0 0CBE1101#100A0100000000F9
(1654094102.497999) can0 32E#014C4C000000004C
(1654094102.498487) can0 0CBE1101#21BABBBCBD0000F9
(1654094102.499622) can0 0CBE0111#058100000000F9BA
(1654094102.503270) can0 0CBE1101#10090100000000FA
(1654094102.504004) can0 0CBE1101#2164656C000000FA
(1654094102.505280) can0 0CBE0111#048100000000FA64
(1654094102.507860) can0 32E#014C4C000000004C
(1654094102.509346) can0 0CBE1101#100E0100000000FD
(1654094102.510020) can0 0CBE1101#2120242526404243
(1654094102.510746) can0 0CBE1101#224D242526404243
(1654094102.511926) can0 0CBE0111#1009814004000080
(1654094102.512249) can0 0CBE0111#2184C04026404243
(1654094102.515538) can0 0CBE1101#100A010000000012
(1654094102.516271) can0 0CBE1101#216667A8A9000012
(1654094102.517232) can0 0CBE0111#0581AAAA10001266
(1654094102.518630) can0 32E#014C4C000000004C
(1654094102.521251) can0 0CBE1101#100901000000001A
(1654094102.522039) can0 0CBE1101#21525C5D0000001A
(1654094102.523228) can0 0CBE0111#0481800000001A52
(1654094102.526765) can0 0CBE1101#100A0100000000E2
(1654094102.527544) can0 0CBE1101#21CCCDCECF0000E2
(1654094102.528443) can0 32E#014B4B000000004B
(1654094102.528724) can0 0CBE0111#058100000000E2CC
(1654094102.532373) can0 0CBE1101#10230100000000F8
(1654094102.533071) can0 0CBE1101#213031363744454C
(1654094102.533804) can0 0CBE1101#224D4E4F50515A5B
(1654094102.534572) can0 0CBE1101#235C5D646A6B7C7D
(1654094102.535303) can0 0CBE1101#249E9FA0A1D8D9DA
(1654094102.536035) can0 0CBE1101#25DB9FA0A1D8D9DA
(1654094102.537181) can0 0CBE0111#101E81CAFF1F54FE
(1654094102.537518) can0 0CBE0111#214BF490967FE0FA
(1654094102.537841) can0 0CBE0111#220000EE8EF09C4E
(1654094102.538082) can0 32E#014B4B000000004B
(1654094102.538364) can0 0CBE0111#230000F5A82E0E00
(1654094102.538844) can0 0CBE0111#24800080A1D8D9DA
(1654094102.544104) can0 0CBE1101#100A0100000000F9
(1654094102.544821) can0 0CBE1101#21BABBBCBD0000F9
(1654094102.545827) can0 0CBE0111#058100000000F9BA
(1654094102.547991) can0 32E#014B4B000000004B
(1654094102.550463) can0 0CBE1101#10090100000000FA
(1654094102.551325) can0 0CBE1101#2164656C000000FA
(1654094102.552476) can0 0CBE0111#048100000000FA64
(1654094102.555919) can0 0CBE1101#100E0100000000FD
(1654094102.556600) can0 0CBE1101#2120242526404243
(1654094102.557319) can0 0CBE1101#224D242526404243
(1654094102.558013) can0 32E#014B4B000000004B
(1654094102.558470) can0 0CBE0111#1009814004000080
(1654094102.558791) can0 0CBE0111#2184C04026404243
(1654094102.561955) can0 0CBE1101#100A010000000012
(1654094102.562587) can0 0CBE1101#216667A8A9000012
(1654094102.563776) can0 0CBE0111#0581AAAA10001266
(1654094102.567453) can0 0CBE1101#100901000000001A
(1654094102.568007) can0 32E#014B4B000000004B
(1654094102.568286) can0 0CBE1101#21525C5D0000001A
(1654094102.569434) can0 0CBE0111#0481810000001A52
(1654094102.573179) can0 0CBE1101#100A0100000000E2
(1654094102.573866) can0 0CBE1101#21CCCDCECF0000E2
(1654094102.575084) can0 0CBE0111#058100000000E2CC
(1654094102.578951) can0 32E#014B4B000000004B
(1654094102.579494) can0 0CBE1101#10230100000000F8
(1654094102.580147) can0 0CBE1101#213031363744454C
(1654094102.580883) can0 0CBE1101#224D4E4F50515A5B
(1654094102.581648) can0 0CBE1101#235C5D646A6B7C7D
(1654094102.582398) can0 0CBE1101#249E9FA0A1D8D9DA
(1654094102.583106) can0 0CBE1101#25DB9FA0A1D8D9DA
(1654094102.584391) can0 0CBE0111#101E81CAFF1F54FE
(1654094102.584721) can0 0CBE0111#214BF490967FE0FA
(1654094102.585048) can0 0CBE0111#220000EE8EF0A84E
(1654094102.585392) can0 0CBE0111#230000F5A82E0E00
(1654094102.585716) can0 0CBE0111#24800080A1D8D9DA
(1654094102.588399) can0 32E#014B4B000000004B
(1654094102.591491) can0 0CBE1101#100A0100000000F9
(1654094102.592139) can0 0CBE1101#21BABBBCBD0000F9
(1654094102.593363) can0 0CBE0111#058100000000F9BA
(1654094102.597359) can0 0CBE1101#10090100000000FA
(1654094102.598105) can0 32E#014B4B000000004B
(1654094102.598393) can0 0CBE1101#2164656C000000FA
(1654094102.599344) can0 0CBE0111#048100000000FA64
(1654094102.602874) can0 0CBE1101#100E0100000000FD
(1654094102.603687) can0 0CBE1101#2120242526404243
(1654094102.604390) can0 0CBE1101#224D242526404243
(1654094102.605666) can0 0CBE0111#1009814004000080
(1654094102.606036) can0 0CBE0111#2184C04026404243
(1654094102.608075) can0 32E#014B4B000000004B
(1654094102.608822) can0 0CBE1101#100A010000000012
(1654094102.609682) can0 0CBE1101#216667A8A9000012
(1654094102.610644) can0 0CBE0111#0581AAAA03001266
(1654094102.614493) can0 0CBE1101#100901000000001A
(1654094102.615180) can0 0CBE1101#21525C5D0000001A
(1654094102.616303) can0 0CBE0111#0481810000001A52
(1654094102.618163) can0 32E#014B4B000000004B
(1654094102.620268) can0 0CBE1101#100A0100000000E2
(1654094102.620935) can0 0CBE1101#21CCCDCECF0000E2
(1654094102.621955) can0 0CBE0111#058100000000E2CC
(1654094102.626158) can0 0CBE1101#10230100000000F8
(1654094102.626972) can0 0CBE1101#213031363744454C
(1654094102.627712) can0 0CBE1101#224D4E4F50515A5B
(1654094102.628092) can0 32E#014C4C000000004C
(1654094102.628468) can0 0CBE1101#235C5D646A6B7C7D
(1654094102.629224) can0 0CBE1101#249E9FA0A1D8D9DA
(1654094102.629932) can0 0CBE1101#25DB9FA0A1D8D9DA
(1654094102.630918) can0 0CBE0111#101E81FEFF445428
(1654094102.631260) can0 0CBE0111#214C7C8F967FE0FA
(1654094102.631582) can0 0CBE0111#220000EE8EF0B44E
(1654094102.631920) can0 0CBE0111#230000F5A82E0E00
(1654094102.632254) can0 0CBE0111#24800080A1D8D9DA
(1654094102.638265) can0 32E#014C4C000000004C
(1654094102.638550) can0 0CBE1101#100A0100000000F9
(1654094102.639226) can0 0CBE1101#21BABBBCBD0000F9
(1654094102.640233) can0 0CBE0111#058100000000F9BA
(1654094102.644048) can0 0CBE1101#10090100000000FA
(1654094102.644740) can0 0CBE1101#2164656C000000FA
(1654094102.645882) can0 0CBE0111#048100000000FA64
(1654094102.648775) can0 32E#014C4C000000004C
(1654094102.649458) can0 0CBE1101#100E0100000000FD
(1654094102.650249) can0 0CBE1101#2120242526404243
(1654094102.650980) can0 0CBE1101#224D242526404243
(1654094102.652203) can0 0CBE0111#1009814004000080
(1654094102.652527) can0 0CBE0111#2184C04026404243
(1654094102.654959) can0 0CBE1101#100A010000000012
(1654094102.655748) can0 0CBE1101#216667A8A9000012
(1654094102.656845) can0 0CBE0111#0581AAAA03001266
(1654094102.658431) can0 32E#014B4B000000004B
(1654094102.660944) can0 0CBE1101#100901000000001A
(1654094102.661767) can0 0CBE1101#21525C5D0000001A
(1654094102.662837) can0 0CBE0111#0481810000001A52
(1654094102.666698) can0 0CBE1101#100A0100000000E2
(1654094102.667519) can0 0CBE1101#21CCCDCECF0000E2
(1654094102.668223) can0 32E#014B4B000000004B
(1654094102.668505) can0 0CBE0111#058100000000E2CC
(1654094102.672372) can0 0CBE1101#10230100000000F8
(1654094102.673049) can0 0CBE1101#213031363744454C
(1654094102.673779) can0 0CBE1101#224D4E4F50515A5B
(1654094102.674545) can0 0CBE1101#235C5D646A6B7C7D
(1654094102.675301) can0 0CBE1101#249E9FA0A1D8D9DA
(1654094102.676010) can0 0CBE1101#25DB9FA0A1D8D9DA
(1654094102.677140) can0 0CBE0111#101E81CAFF4454F4
(1654094102.677457) can0 0CBE0111#214BF490967FE0FA
(1654094102.677785) can0 0CBE0111#220000EE8EF0A84E
(1654094102.678145) can0 0CBE0111#230000F5A82E0E00
(1654094102.678394) can0 32E#014B4B000000004B
(1654094102.678669) can0 0CBE0111#24800080A1D8D9DA
(1654094102.678943) can0 0CBCA141#FF9DD32880000000
(1654094102.684048) can0 0CBE1101#100A0100000000F9
(1654094102.684807) can0 0CBE1101#21BABBBCBD0000F9
(1654094102.685771) can0 0CBE0111#058100000000F9BA
(1654094102.688172) can0 32E#014B4B000000004B
(1654094102.689508) can0 0CBE1101#10090100000000FA
(1654094102.690305) can0 0CBE1101#2164656C000000FA
(1654094102.690586) can0 0CBCA141#FF9DD32980000000
(1654094102.691424) can0 0CBE0111#048100000000FA64
(1654094102.695089) can0 0CBE1101#100E0100000000FD
(1654094102.695842) can0 0CBE1101#2120242526404243
(1654094102.696544) can0 0CBE1101#224D242526404243
(1654094102.697744) can0 0CBE0111#1009814004000080
(1654094102.698066) can0 0CBE0111#2184C04026404243
(1654094102.698314) can0 32E#014B4B000000004B
(1654094102.701411) can0 0CBE1101#100A010000000012
(1654094102.702074) can0 0CBE1101#216667A8A9000012
(1654094102.703050) can0 0CBE0111#0581AAAA03001266
(1654094102.706791) can0 0CBE1101#100901000000001A
(1654094102.707570) can0 0CBE1101#21525C5D0000001A
(1654094102.708707) can0 0CBE0111#0481800000001A52
(1654094102.708964) can0 32E#014B4B000000004B
(1654094102.712199) can0 0CBE1101#100A0100000000E2
(1654094102.712842) can0 0CBE1101#21CCCDCECF0000E2
(1654094102.714025) can0 0CBE0111#058100000000E2CC
(1654094102.718456) can0 0CBE1101#10230100000000F8
(1654094102.718697) can0 32E#014B4B000000004B
(1654094102.719115) can0 0CBE1101#213031363744454C
(1654094102.719867) can0 0CBE1101#224D4E4F50515A5B
(1654094102.720612) can0 0CBE1101#235C5D646A6B7C7D
(1654094102.721371) can0 0CBE1101#249E9FA0A1D8D9DA
(1654094102.722093) can0 0CBE1101#25DB9FA0A1D8D9DA
(1654094102.723331) can0 0CBE0111#101E81FEFF1F54FE
(1654094102.723663) can0 0CBE0111#214BF490967FE0FA
(1654094102.724011) can0 0CBE0111#220000EE8EF0A84E
(1654094102.724331) can0 0CBE0111#230000F5A82E0E00
(1654094102.724657) can0 0CBE0111#24800080A1D8D9DA
(1654094102.728272) can0 32E#014B4B000000004B
(1654094102.738446) can0 32E#014B4B000000004B
(1654094102.748289) can0 32E#014B4B000000004B
(1654094102.749596) can0 0CBE1101#100A0100000000F9
(1654094102.750396) can0 0CBE1101#21BABBBCBD0000F9
(1654094102.751590) can0 0CBE0111#058100000000F9BA
(1654094102.755243) can0 0CBE1101#10090100000000FA
(1654094102.755910) can0 0CBE1101#2164656C000000FA
(1654094102.756908) can0 0CBE0111#048100000000FA64
(1654094102.758417) can0 32E#014B4B000000004B
(1654094102.761215) can0 0CBE1101#100E0100000000FD
(1654094102.761939) can0 0CBE1101#2120242526404243
(1654094102.762658) can0 0CBE1101#224D242526404243
(1654094102.763894) can0 0CBE0111#1009814004000080
(1654094102.764217) can0 0CBE0111#2184C04026404243
(1654094102.767179) can0 0CBE1101#100A010000000012
(1654094102.767935) can0 0CBE1101#216667A8A9000012
(1654094102.769061) can0 32E#014B4B000000004B
(1654094102.769330) can0 0CBE0111#0581AAAA03001266
(1654094102.773148) can0 0CBE1101#100901000000001A
(1654094102.773947) can0 0CBE1101#21525C5D0000001A
(1654094102.775189) can0 0CBE0111#0481800000001A52
(1654094102.778684) can0 32E#014B4B000000004B
(1654094102.779395) can0 0CBE1101#100A0100000000E2
(1654094102.780203) can0 0CBE1101#21CCCDCECF0000E2
(1654094102.781173) can0 0CBE0111#058100000000E2CC
(1654094102.785308) can0 0CBE1101#10230100000000F8
(1654094102.785961) can0 0CBE1101#213031363744454C
(1654094102.786719) can0 0CBE1101#224D4E4F50515A5B
(1654094102.787487) can0 0CBE1101#235C5D646A6B7C7D
(1654094102.788218) can0 0CBE1101#249E9FA0A1D8D9DA
(1654094102.788459) can0 32E#014B4B000000004B
(1654094102.788945) can0 0CBE1101#25DB9FA0A1D8D9DA
(1654094102.790147) can0 0CBE0111#101E8184FF1F54FE
(1654094102.790483) can0 0CBE0111#214BF490967FE0FA
(1654094102.790805) can0 0CBE0111#220000EE8EF0A84E
(1654094102.791145) can0 0CBE0111#230000F5A82E0E00
(1654094102.791477) can0 0CBE0111#24800080A1D8D9DA
(1654094102.797544) can0 0CBE1101#100A0100000000F9
(1654094102.798237) can0 0CBE1101#21BABBBCBD0000F9
(1654094102.798479) can0 32E#014B4B000000004B
(1654094102.799463) can0 0CBE0111#058100000000F9BA
(1654094102.802930) can0 0CBE1101#10090100000000FA
(1654094102.803732) can0 0CBE1101#2164656C000000FA
(1654094102.804776) can0 0CBE0111#048100000000FA64
(1654094102.808354) can0 32E#014B4B000000004B
(1654094102.809266) can0 0CBE1101#100E0100000000FD
(1654094102.810012) can0 0CBE1101#2120242526404243
(1654094102.810738) can0 0CBE1101#224D242526404243
(1654094102.811760) can0 0CBE0111#1009814004000080
(1654094102.812085) can0 0CBE0111#2184C04026404243
(1654094102.814630) can0 0CBE1101#100A010000000012
(1654094102.815257) can0 0CBE1101#216667A8A9000012
(1654094102.816406) can0 0CBE0111#0581AAAA03001266
(1654094102.818368) can0 32E#014B4B000000004B
(1654094102.820013) can0 0CBE1101#100901000000001A
(1654094102.820768) can0 0CBE1101#21525C5D0000001A
(1654094102.821728) can0 0CBE0111#0481810000001A52
(1654094102.825514) can0 0CBE1101#100A0100000000E2
(1654094102.826267) can0 0CBE1101#21CCCDCECF0000E2
(1654094102.827392) can0 0CBE0111#058100000000E2CC
(1654094102.829221) can0 32E#014B4B000000004B
(1654094102.831533) can0 0CBE1101#10230100000000F8
(1654094102.832303) can0 0CBE1101#213031363744454C
(1654094102.833037) can0 0CBE1101#224D4E4F50515A5B
(1654094102.833799) can0 0CBE1101#235C5D646A6B7C7D
(1654094102.834554) can0 0CBE1101#249E9FA0A1D8D9DA
(1654094102.835269) can0 0CBE1101#25DB9FA0A1D8D9DA
(1654094102.836351) can0 0CBE0111#101E81CAFF1F54FE
(1654094102.836683) can0 0CBE0111#214BF490967FE0FA
(1654094102.837011) can0 0CBE0111#220000EE8EF09C4E
(1654094102.837351) can0 0CBE0111#230000F5A82E0E00
(1654094102.837677) can0 0CBE0111#24800080A1D8D9DA
(1654094102.838733) can0 32E#014B4B000000004B
(1654094102.843518) can0 0CBE1101#100A0100000000F9
(1654094102.844304) can0 0CBE1101#21BABBBCBD0000F9
(1654094102.845329) can0 0CBE0111#058100000000F9BA
(1654094102.848580) can0 32E#014B4B000000004B
(1654094102.849263) can0 0CBE1101#10090100000000FA
(1654094102.850061) can0 0CBE1101#2164656C000000FA
(1654094102.851314) can0 0CBE0111#048100000000FA64
(1654094102.855402) can0 0CBE1101#100E0100000000FD
(1654094102.856082) can0 0CBE1101#2120242526404243
(1654094102.856802) can0 0CBE1101#224D242526404243
(1654094102.857965) can0 0CBE0111#1009814004000080
(1654094102.858289) can0 0CBE0111#2184C04026404243
(1654094102.858531) can0 32E#014B4B000000004B
(1654094102.861358) can0 0CBE1101#100A010000000012
(1654094102.862090) can0 0CBE1101#216667A8A9000012
(1654094102.863272) can0 0CBE0111#0581AAAA03001266
(1654094102.866781) can0 0CBE1101#100901000000001A
(1654094102.867584) can0 0CBE1101#21525C5D0000001A
(1654094102.868502) can0 32E#014B4B000000004B
(1654094102.868790) can0 0CBE0111#0481800000001A52
(1654094102.872247) can0 0CBE1101#100A0100000000E2
(1654094102.873114) can0 0CBE1101#21CCCDCECF0000E2
(1654094102.874249) can0 0CBE0111#058100000000E2CC
(1654094102.878373) can0 0CBE1101#10230100000000F8
(1654094102.878606) can0 32E#014C4C000000004C
(1654094102.879134) can0 0CBE1101#213031363744454C
(1654094102.879868) can0 0CBE1101#224D4E4F50515A5B
(1654094102.880631) can0 0CBE1101#235C5D646A6B7C7D
(1654094102.881366) can0 0CBE1101#249E9FA0A1D8D9DA
(1654094102.882094) can0 0CBE1101#25DB9FA0A1D8D9DA
(1654094102.883214) can0 0CBE0111#101E81CAFF445428
(1654094102.883554) can0 0CBE0111#214C7C8F967FE0FA
(1654094102.883880) can0 0CBE0111#220000EE8EF0A84E
(1654094102.884221) can0 0CBE0111#230000F5A82E0E00
(1654094102.884547) can0 0CBE0111#24800080A1D8D9DA
(1654094102.888521) can0 32E#014C4C000000004C
(1654094102.890081) can0 0CBE1101#100A0100000000F9
(1654094102.890885) can0 0CBE1101#21BABBBCBD0000F9
(1654094102.891873) can0 0CBE0111#058100000000F9BA
(1654094102.895447) can0 0CBE1101#10090100000000FA
(1654094102.896137) can0 0CBE1101#2164656C000000FA
(1654094102.897185) can0 0CBE0111#048100000000FA64
(1654094102.899013) can0 32E#014C4C000000004C
(1654094102.901154) can0 0CBE1101#100E0100000000FD
(1654094102.901915) can0 0CBE1101#2120242526404243
(1654094102.902621) can0 0CBE1101#224D242526404243
(1654094102.903839) can0 0CBE0111#1009814004000080
(1654094102.904162) can0 0CBE0111#2184C04026404243
(1654094102.906669) can0 0CBE1101#100A010000000012
(1654094102.907399) can0 0CBE1101#216667A8A9000012
(1654094102.908516) can0 0CBE0111#0581AAAA03001266
(1654094102.908764) can0 32E#014B4B000000004B
(1654094102.912154) can0 0CBE1101#100901000000001A
(1654094102.912916) can0 0CBE1101#21525C5D0000001A
(1654094102.914140) can0 0CBE0111#0481810000001A52
(1654094102.917866) can0 0CBE1101#100A0100000000E2
(1654094102.918524) can0 32E#014B4B000000004B
(1654094102.918799) can0 0CBE1101#21CCCDCECF0000E2
(1654094102.919788) can0 0CBE0111#058100000000E2CC
(1654094102.924283) can0 0CBE1101#10230100000000F8
(1654094102.924940) can0 0CBE1101#213031363744454C
(1654094102.925694) can0 0CBE1101#224D4E4F50515A5B
(1654094102.926456) can0 0CBE1101#235C5D646A6B7C7D
(1654094102.927192) can0 0CBE1101#249E9FA0A1D8D9DA
(1654094102.927924) can0 0CBE1101#25DB9FA0A1D8D9DA
(1654094102.928636) can0 32E#014B4B000000004B
(1654094102.929094) can0 0CBE0111#101E81FEFF1F54FE
(1654094102.929424) can0 0CBE0111#214BF490967FE0FA
(1654094102.929761) can0 0CBE0111#220000EE8EF09C4E
(1654094102.930100) can0 0CBE0111#230000F5A82E0E00
(1654094102.930420) can0 0CBE0111#24800080A1D8D9DA
(1654094102.936665) can0 0CBE1101#100A0100000000F9
(1654094102.937444) can0 0CBE1101#21BABBBCBD0000F9
(1654094102.938406) can0 0CBE0111#058100000000F9BA
(1654094102.938648) can0 32E#014B4B000000004B
(1654094102.942237) can0 0CBE1101#10090100000000FA
(1654094102.942971) can0 0CBE1101#2164656C000000FA
(1654094102.944057) can0 0CBE0111#048100000000FA64
(1654094102.948213) can0 0CBE1101#100E0100000000FD
(1654094102.948979) can0 0CBE1101#2120242526404243
(1654094102.949677) can0 32E#014B4B000000004B
(1654094102.949947) can0 0CBE1101#224D242526404243
(1654094102.951041) can0 0CBE0111#1009814004000080
(1654094102.951371) can0 0CBE0111#2184C04026404243
(1654094102.953575) can0 0CBE1101#100A010000000012
(1654094102.954239) can0 0CBE1101#216667A8A9000012
(1654094102.955349) can0 0CBE0111#0581AAAA03001266
(1654094102.959242) can0 0CBE1101#100901000000001A
(1654094102.959483) can0 32E#014B4B000000004B
(1654094102.960013) can0 0CBE1101#21525C5D0000001A
(1654094102.961018) can0 0CBE0111#0481810000001A52
(1654094102.964584) can0 0CBE1101#100A0100000000E2
(1654094102.965251) can0 0CBE1101#21CCCDCECF0000E2
(1654094102.966325) can0 0CBE0111#058100000000E2CC
(1654094102.968860) can0 32E#014B4B000000004B
(1654094102.970378) can0 0CBE1101#10230100000000F8
(1654094102.971038) can0 0CBE1101#213031363744454C
(1654094102.971766) can0 0CBE1101#224D4E4F50515A5B
(1654094102.972534) can0 0CBE1101#235C5D646A6B7C7D
(1654094102.973266) can0 0CBE1101#249E9FA0A1D8D9DA
(1654094102.974004) can0 0CBE1101#25DB9FA0A1D8D9DA
(1654094102.974964) can0 0CBE0111#101E81FEFF4454F4
(1654094102.975298) can0 0CBE0111#214BF490967FE0FA
(1654094102.975636) can0 0CBE0111#220000EE8EF0B44E
(1654094102.975972) can0 0CBE0111#230000F5A82E0E00
(1654094102.976294) can0 0CBE0111#24800080A1D8D9DA
(1654094102.978628) can0 32E#014B4B000000004B
(1654094102.982421) can0 0CBE1101#100A0100000000F9
(1654094102.983284) can0 0CBE1101#21BABBBCBD0000F9
(1654094102.984278) can0 0CBE0111#058100000000F9BA
(1654094102.988251) can0 0CBE1101#10090100000000FA
(1654094102.988784) can0 32E#014B4B000000004B
(1654094102.989060) can0 0CBE1101#2164656C000000FA
(1654094102.990267) can0 0CBE0111#048100000000FA64
(1654094102.993645) can0 0CBE1101#100E0100000000FD
(1654094102.994318) can0 0CBE1101#2120242526404243
(1654094102.995020) can0 0CBE1101#224D242526404243
(1654094102.996249) can0 0CBE0111#1009814004000080
(1654094102.996572) can0 0CBE0111#2184C04026404243
(1654094102.998664) can0 32E#014B4B000000004B
(1654094102.999365) can0 0CBE1101#100A010000000012
(1654094103.000071) can0 0CBE1101#216667A8A9000012
(1654094103.001223) can0 0CBE0111#0581AAAA03001266
(1654094103.004753) can0 0CBE1101#100901000000001A
(1654094103.005575) can0 0CBE1101#21525C5D0000001A
(1654094103.006547) can0 0CBE0111#0481800000001A52
(1654094103.008690) can0 32E#014B4B000000004B
(1654094103.010374) can0 0CBE1101#100A0100000000E2
(1654094103.011073) can0 0CBE1101#21CCCDCECF0000E2
(1654094103.012200) can0 0CBE0111#058100000000E2CC
(1654094103.015893) can0 0CBE1101#10230100000000F8
(1654094103.016596) can0 0CBE1101#213031363744454C
(1654094103.017349) can0 0CBE1101#224D4E4F50515A5B
(1654094103.018097) can0 0CBE1101#235C5D646A6B7C7D
(1654094103.018847) can0 0CBE1101#249E9FA0A1D8D9DA
(1654094103.019345) can0 32E#014B4B000000004B
(1654094103.019617) can0 0CBE1101#25DB9FA0A1D8D9DA
(1654094103.020834) can0 0CBE0111#101E81CAFF4454F4
(1654094103.021176) can0 0CBE0111#214BF490967FE0FA
(1654094103.021504) can0 0CBE0111#220000EE8EF0A84E
(1654094103.021844) can0 0CBE0111#230000F5A82E0E00
(1654094103.022170) can0 0CBE0111#24800080A1D8D9DA
(1654094103.028551) can0 0CBE1101#100A0100000000F9
(1654094103.028912) can0 32E#014B4B000000004B
(1654094103.029351) can0 0CBE1101#21BABBBCBD0000F9
(1654094103.030483) can0 0CBE0111#058100000000F9BA
(1654094103.033932) can0 0CBE1101#10090100000000FA
(1654094103.034622) can0 0CBE1101#2164656C000000FA
(1654094103.035802) can0 0CBE0111#048100000000FA64
(1654094103.038754) can0 32E#014C4C000000004C
(1654094103.040366) can0 0CBE1101#100E0100000000FD
(1654094103.041132) can0 0CBE1101#2120242526404243
(1654094103.041858) can0 0CBE1101#224D242526404243
(1654094103.043120) can0 0CBE0111#1009814004000080
(1654094103.043442) can0 0CBE0111#2184C04026404243
(1654094103.046837) can0 0CBE1101#100A010000000012
(1654094103.047636) can0 0CBE1101#216667A8A9000012
(1654094103.048759) can0 0CBE0111#0581AAAA03001266
(1654094103.049004) can0 32E#014C4C000000004C
(1654094103.053151) can0 0CBE1101#100901000000001A
(1654094103.053886) can0 0CBE1101#21525C5D0000001A
(1654094103.055082) can0 0CBE0111#0481810000001A52
(1654094103.058783) can0 32E#014C4C000000004C
(1654094103.059257) can0 0CBE1101#100A0100000000E2
(1654094103.059900) can0 0CBE1101#21CCCDCECF0000E2
(1654094103.061093) can0 0CBE0111#058100000000E2CC
(1654094103.064734) can0 0CBE1101#10230100000000F8
(1654094103.065430) can0 0CBE1101#213031363744454C
(1654094103.066164) can0 0CBE1101#224D4E4F50515A5B
(1654094103.066931) can0 0CBE1101#235C5D646A6B7C7D
(1654094103.067687) can0 0CBE1101#249E9FA0A1D8D9DA
(1654094103.068401) can0 0CBE1101#25DB9FA0A1D8D9DA
(1654094103.068911) can0 32E#014C4C000000004C
(1654094103.069371) can0 0CBE0111#101E81CAFF445428
(1654094103.069705) can0 0CBE0111#214C7C8F967FE0FA
(1654094103.070033) can0 0CBE0111#220000EE8EF0C04E
(1654094103.070371) can0 0CBE0111#230000F5A82E0E00
(1654094103.070697) can0 0CBE0111#24800080A1D8D9DA
(1654094103.076490) can0 0CBE1101#100A0100000000F9
(1654094103.077177) can0 0CBE1101#21BABBBCBD0000F9
(1654094103.078349) can0 0CBE0111#058100000000F9BA
(1654094103.079589) can0 32E#014C4C000000004C
(1654094103.082230) can0 0CBE1101#10090100000000FA
(1654094103.082940) can0 0CBE1101#2164656C000000FA
(1654094103.084003) can0 0CBE0111#048100000000FA64
(1654094103.088258) can0 0CBE1101#100E0100000000FD
(1654094103.088956) can0 0CBE1101#2120242526404243
(1654094103.089202) can0 32E#014C4C000000004C
(1654094103.089686) can0 0CBE1101#224D242526404243
(1654094103.090653) can0 0CBE0111#1009814004000080
(1654094103.090977) can0 0CBE0111#2184C04026404243
(1654094103.094356) can0 0CBE1101#100A010000000012
(1654094103.095220) can0 0CBE1101#216667A8A9000012
(1654094103.096294) can0 0CBE0111#0581AAAA03001266
(1654094103.098852) can0 32E#014B4B000000004B
(1654094103.100238) can0 0CBE1101#100901000000001A
(1654094103.100960) can0 0CBE1101#21525C5D0000001A
(1654094103.101950) can0 0CBE0111#0481800000001A52
(1654094103.105693) can0 0CBE1101#100A0100000000E2
(1654094103.106472) can0 0CBE1101#21CCCDCECF0000E2
(1654094103.107600) can0 0CBE0111#058100000000E2CC
(1654094103.108951) can0 32E#014B4B000000004B
(1654094103.111288) can0 0CBE1101#10230100000000F8
(1654094103.112017) can0 0CBE1101#213031363744454C
(1654094103.112751) can0 0CBE1101#224D4E4F50515A5B
(1654094103.113506) can0 0CBE1101#235C5D646A6B7C7D
(1654094103.114242) can0 0CBE1101#249E9FA0A1D8D9DA
(1654094103.114974) can0 0CBE1101#25DB9FA0A1D8D9DA
(1654094103.116243) can0 0CBE0111#101E81FEFF1F54FE
(1654094103.116572) can0 0CBE0111#214BF490967FE0FA
(1654094103.116902) can0 0CBE0111#220000EE8EF0B44E
(1654094103.117240) can0 0CBE0111#230000F5A82E0E00
(1654094103.117568) can0 0CBE0111#24800080A1D8D9DA
(1654094103.118891) can0 32E#014B4B000000004B
(1654094103.123407) can0 0CBE1101#100A0100000000F9
(1654094103.124251) can0 0CBE1101#21BABBBCBD0000F9
(1654094103.125221) can0 0CBE0111#058100000000F9BA
(1654094103.129067) can0 32E#014C4C000000004C
(1654094103.129363) can0 0CBE1101#10090100000000FA
(1654094103.130033) can0 0CBE1101#2164656C000000FA
(1654094103.131205) can0 0CBE0111#048100000000FA64
(1654094103.134650) can0 0CBE1101#100E0100000000FD
(1654094103.135279) can0 0CBE1101#2120242526404243
(1654094103.136006) can0 0CBE1101#224D242526404243
(1654094103.137191) can0 0CBE0111#1009814004000080
(1654094103.137522) can0 0CBE0111#2184C04026404243
(1654094103.139697) can0 32E#014C4C000000004C
(1654094103.140352) can0 0CBE1101#100A010000000012
(1654094103.141040) can0 0CBE1101#216667A8A9000012
(1654094103.142165) can0 0CBE0111#0581AAAA03001266
(1654094103.145798) can0 0CBE1101#100901000000001A
(1654094103.146554) can0 0CBE1101#21525C5D0000001A
(1654094103.147824) can0 0CBE0111#0481800000001A52
(1654094103.149269) can0 32E#014C4C000000004C
(1654094103.152136) can0 0CBE1101#100A0100000000E2
(1654094103.152804) can0 0CBE1101#21CCCDCECF0000E2
(1654094103.153806) can0 0CBE0111#058100000000E2CC
(1654094103.157960) can0 0CBE1101#10230100000000F8
(1654094103.158834) can0 0CBE1101#213031363744454C
(1654094103.159074) can0 32E#014C4C000000004C
(1654094103.159566) can0 0CBE1101#224D4E4F50515A5B
(1654094103.160329) can0 0CBE1101#235C5D646A6B7C7D
(1654094103.161088) can0 0CBE1101#249E9FA0A1D8D9DA
(1654094103.161796) can0 0CBE1101#25DB9FA0A1D8D9DA
(1654094103.162776) can0 0CBE0111#101E81FEFF445428
(1654094103.163112) can0 0CBE0111#214C7C8F967FE0FA
(1654094103.163438) can0 0CBE0111#220000EE8EF0A84E
(1654094103.163778) can0 0CBE0111#230000F5A82E0E00
(1654094103.164113) can0 0CBE0111#24800080A1D8D9DA
(1654094103.168951) can0 32E#014C4C000000004C
(1654094103.170522) can0 0CBE1101#100A0100000000F9
(1654094103.171346) can0 0CBE1101#21BABBBCBD0000F9
(1654094103.172423) can0 0CBE0111#058100000000F9BA
(1654094103.175891) can0 0CBE1101#10090100000000FA
(1654094103.176589) can0 0CBE1101#2164656C000000FA
(1654094103.177743) can0 0CBE0111#048100000000FA64
(1654094103.178993) can0 32E#014C4C000000004C
(1654094103.182287) can0 0CBE1101#100E0100000000FD
(1654094103.183121) can0 0CBE1101#2120242526404243
(1654094103.183847) can0 0CBE1101#224D242526404243
(1654094103.185060) can0 0CBE0111#1009814004000080
(1654094103.185387) can0 0CBE0111#2184C04026404243
(1654094103.188392) can0 0CBE1101#100A010000000012
(1654094103.188985) can0 32E#014C4C000000004C
(1654094103.189255) can0 0CBE1101#216667A8A9000012
(1654094103.190365) can0 0CBE0111#0581AAAA03001266
(1654094103.193818) can0 0CBE1101#100901000000001A
(1654094103.194621) can0 0CBE1101#21525C5D0000001A
(1654094103.195689) can0 0CBE0111#0481800000001A52
(1654094103.199228) can0 0CBE1101#100A0100000000E2
(1654094103.199871) can0 0CBE1101#21CCCDCECF0000E2
(1654094103.200114) can0 32E#014B4B000000004B
(1654094103.201007) can0 0CBE0111#058100000000E2CC
(1654094103.204858) can0 0CBE1101#10230100000000F8
(1654094103.205653) can0 0CBE1101#213031363744454C
(1654094103.206402) can0 0CBE1101#224D4E4F50515A5B
(1654094103.207168) can0 0CBE1101#235C5D646A6B7C7D
(1654094103.207908) can0 0CBE1101#249E9FA0A1D8D9DA
(1654094103.208638) can0 0CBE1101#25DB9FA0A1D8D9DA
(1654094103.209570) can0 32E#014B4B000000004B
(1654094103.209850) can0 0CBE0111#101E81CAFF1F54FE
(1654094103.210314) can0 0CBE0111#214BF490967FE0FA
(1654094103.210642) can0 0CBE0111#220000EE8EF09C4E
(1654094103.211018) can0 0CBE0111#230000F5A82E0E00
(1654094103.211308) can0 0CBE0111#24800080A1D8D9DA
(1654094103.216538) can0 0CBE1101#100A0100000000F9
(1654094103.217400) can0 0CBE1101#21BABBBCBD0000F9
(1654094103.218628) can0 0CBE0111#058100000000F9BA
(1654094103.219058) can0 32E#014B4B000000004B
(1654094103.222355) can0 0CBE1101#10090100000000FA
(1654094103.223180) can0 0CBE1101#2164656C000000FA
(1654094103.224279) can0 0CBE0111#048100000000FA64
(1654094103.228259) can0 0CBE1101#100E0100000000FD
(1654094103.228939) can0 0CBE1101#2120242526404243
(1654094103.229174) can0 32E#014B4B000000004B
(1654094103.229658) can0 0CBE1101#224D242526404243
(1654094103.230932) can0 0CBE0111#1009814004000080
(1654094103.231254) can0 0CBE0111#2184C04026404243
(1654094103.233697) can0 0CBE1101#100A010000000012
(1654094103.234428) can0 0CBE1101#216667A8A9000012
(1654094103.235572) can0 0CBE0111#0581AAAA03001266
(1654094103.239181) can0 32E#014B4B000000004B
(1654094103.239466) can0 0CBE1101#100901000000001A
(1654094103.239946) can0 0CBE1101#21525C5D0000001A
(1654094103.241238) can0 0CBE0111#0481800000001A52
(1654094103.244630) can0 0CBE1101#100A0100000000E2
(1654094103.245457) can0 0CBE1101#21CCCDCECF0000E2
(1654094103.246549) can0 0CBE0111#058100000000E2CC
(1654094103.249080) can0 32E#014B4B000000004B
(1654094103.250179) can0 0CBE1101#10230100000000F8
(1654094103.250969) can0 0CBE1101#213031363744454C
(1654094103.251727) can0 0CBE1101#224D4E4F50515A5B
(1654094103.252490) can0 0CBE1101#235C5D646A6B7C7D
(1654094103.253225) can0 0CBE1101#249E9FA0A1D8D9DA
(1654094103.253957) can0 0CBE1101#25DB9FA0A1D8D9DA
(1654094103.255189) can0 0CBE0111#101E81FEFF1F54FE
(1654094103.255521) can0 0CBE0111#214BF490967FE0FA
(1654094103.255849) can0 0CBE0111#220000EE8EF09C4E
(1654094103.256190) can0 0CBE0111#230000F5A82E0E00
(1654094103.256515) can0 0CBE0111#24800080A1D8D9DA
(1654094103.259175) can0 32E#014B4B000000004B
(1654094103.262368) can0 0CBE1101#100A0100000000F9
(1654094103.263232) can0 0CBE1101#21BABBBCBD0000F9
(1654094103.264506) can0 0CBE0111#058100000000F9BA
(1654094103.268112) can0 0CBE1101#10090100000000FA
(1654094103.268749) can0 0CBE1101#2164656C000000FA
(1654094103.269820) can0 0CBE0111#048100000000FA64
(1654094103.270061) can0 32E#014B4B000000004B
(1654094103.273509) can0 0CBE1101#100E0100000000FD
(1654094103.274272) can0 0CBE1101#2120242526404243
(1654094103.274974) can0 0CBE1101#224D242526404243
(1654094103.276140) can0 0CBE0111#1009814004000080
(1654094103.276462) can0 0CBE0111#2184C04026404243
(1654094103.279292) can0 32E#014B4B000000004B
(1654094103.279580) can0 0CBE1101#100A010000000012
(1654094103.280016) can0 0CBE1101#216667A8A9000012
(1654094103.281124) can0 0CBE0111#0581AAAA03001266
(1654094103.284753) can0 0CBE1101#100901000000001A
(1654094103.285538) can0 0CBE1101#21525C5D0000001A
(1654094103.286770) can0 0CBE0111#0481800000001A52
(1654094103.289143) can0 32E#014B4B000000004B
(1654094103.290244) can0 0CBE1101#100A0100000000E2
(1654094103.291028) can0 0CBE1101#21CCCDCECF0000E2
(1654094103.292089) can0 0CBE0111#058100000000E2CC
(1654094103.295782) can0 0CBE1101#10230100000000F8
(1654094103.296553) can0 0CBE1101#213031363744454C
(1654094103.297307) can0 0CBE1101#224D4E4F50515A5B
(1654094103.298048) can0 0CBE1101#235C5D646A6B7C7D
(1654094103.298805) can0 0CBE1101#249E9FA0A1D8D9DA
(1654094103.299191) can0 32E#014B4B000000004B
(1654094103.299536) can0 0CBE1101#25DB9FA0A1D8D9DA
(1654094103.300731) can0 0CBE0111#101E81FEFF1F54FE
(1654094103.301067) can0 0CBE0111#214BF490967FE0FA
(1654094103.301397) can0 0CBE0111#220000EE8EF0B44E
(1654094103.301728) can0 0CBE0111#230000F5A82E0E00
(1654094103.302057) can0 0CBE0111#24800080A1D8D9DA
(1654094103.307666) can0 0CBE1101#100A0100000000F9
(1654094103.308309) can0 0CBE1101#21BABBBCBD0000F9
(1654094103.309194) can0 32E#014B4B000000004B
(1654094103.309478) can0 0CBE0111#058100000000F9BA
(1654094103.313182) can0 0CBE1101#10090100000000FA
(1654094103.313819) can0 0CBE1101#2164656C000000FA
(1654094103.315027) can0 0CBE0111#048100000000FA64
(1654094103.319252) can0 32E#014B4B000000004B
(1654094103.319541) can0 0CBE1101#100E0100000000FD
(1654094103.320084) can0 0CBE1101#2120242526404243
(1654094103.320809) can0 0CBE1101#224D242526404243
(1654094103.322013) can0 0CBE0111#1009814004000080
(1654094103.322341) can0 0CBE0111#2184C04026404243
(1654094103.325390) can0 0CBE1101#100A010000000012
(1654094103.326097) can0 0CBE1101#216667A8A9000012
(1654094103.327317) can0 0CBE0111#0581AAAA03001266
(1654094103.329776) can0 32E#014B4B000000004B
(1654094103.331104) can0 0CBE1101#100901000000001A
(1654094103.331840) can0 0CBE1101#21525C5D0000001A
(1654094103.332976) can0 0CBE0111#0481800000001A52
(1654094103.336627) can0 0CBE1101#100A0100000000E2
(1654094103.337362) can0 0CBE1101#21CCCDCECF0000E2
(1654094103.338626) can0 0CBE0111#058100000000E2CC
(1654094103.339422) can0 32E#014B4B000000004B
(1654094103.342793) can0 0CBE1101#10230100000000F8
(1654094103.343626) can0 0CBE1101#213031363744454C
(1654094103.344384) can0 0CBE1101#224D4E4F50515A5B
(1654094103.345128) can0 0CBE1101#235C5D646A6B7C7D
(1654094103.345882) can0 0CBE1101#249E9FA0A1D8D9DA
(1654094103.346610) can0 0CBE1101#25DB9FA0A1D8D9DA
(1654094103.347596) can0 0CBE0111#101E81FEFF4454F4
(1654094103.347930) can0 0CBE0111#214BF490967FE0FA
(1654094103.348259) can0 0CBE0111#220000EE8EF0A84E
(1654094103.348600) can0 0CBE0111#230000F5A82E0E00
(1654094103.348926) can0 0CBE0111#24800080A1D8D9DA
(1654094103.349244) can0 32E#014B4B000000004B
(1654094103.354941) can0 0CBE1101#100A0100000000F9
(1654094103.355628) can0 0CBE1101#21BABBBCBD0000F9
(1654094103.356911) can0 0CBE0111#058100000000F9BA
(1654094103.359275) can0 32E#014B4B000000004B
(1654094103.361279) can0 0CBE1101#10090100000000FA
(1654094103.362141) can0 0CBE1101#2164656C000000FA
(1654094103.363273) can0 0CBE0111#048100000000FA64
(1654094103.366756) can0 0CBE1101#100E0100000000FD
(1654094103.367429) can0 0CBE1101#2120242526404243
(1654094103.368131) can0 0CBE1101#224D242526404243
(1654094103.369215) can0 0CBE0111#1009814004000080
(1654094103.369457) can0 32E#014B4B000000004B
(1654094103.369735) can0 0CBE0111#2184C04026404243
(1654094103.372270) can0 0CBE1101#100A010000000012
(1654094103.372913) can0 0CBE1101#216667A8A9000012
(1654094103.374187) can0 0CBE0111#0581AAAA03001266
(1654094103.378356) can0 0CBE1101#100901000000001A
(1654094103.379179) can0 0CBE1101#21525C5D0000001A
(1654094103.380178) can0 0CBE0111#0481800000001A52
(1654094103.380419) can0 32E#014B4B000000004B
(1654094103.383870) can0 0CBE1101#100A0100000000E2
(1654094103.384681) can0 0CBE1101#21CCCDCECF0000E2
(1654094103.385829) can0 0CBE0111#058100000000E2CC
(1654094103.389960) can0 32E#014B4B000000004B
(1654094103.390406) can0 0CBE1101#10230100000000F8
(1654094103.391214) can0 0CBE1101#213031363744454C
(1654094103.391942) can0 0CBE1101#224D4E4F50515A5B
(1654094103.392708) can0 0CBE1101#235C5D646A6B7C7D
(1654094103.393464) can0 0CBE1101#249E9FA0A1D8D9DA
(1654094103.394172) can0 0CBE1101#25DB9FA0A1D8D9DA
(1654094103.395133) can0 0CBE0111#101E81CAFF1F54FE
(1654094103.395466) can0 0CBE0111#214BF490967FE0FA
(1654094103.395794) can0 0CBE0111#220000EE8EF09C4E
(1654094103.396134) can0 0CBE0111#230000F5A82E0E00
(1654094103.396460) can0 0CBE0111#24800080A1D8D9DA
(1654094103.399592) can0 32E#014B4B000000004B
(1654094103.402515) can0 0CBE1101#100A0100000000F9
(1654094103.403220) can0 0CBE1101#21BABBBCBD0000F9
(1654094103.404447) can0 0CBE0111#058100000000F9BA
(1654094103.408231) can0 0CBE1101#10090100000000FA
(1654094103.408964) can0 0CBE1101#2164656C000000FA
(1654094103.409354) can0 32E#014B4B000000004B
(1654094103.410096) can0 0CBE0111#048100000000FA64
(1654094103.413637) can0 0CBE1101#100E0100000000FD
(1654094103.414486) can0 0CBE1101#2120242526404243
(1654094103.415212) can0 0CBE1101#224D242526404243
(1654094103.416417) can0 0CBE0111#1009814004000080
(1654094103.416740) can0 0CBE0111#2184C04026404243
(1654094103.419175) can0 0CBE1101#100A010000000012
(1654094103.419417) can0 32E#014B4B000000004B
(1654094103.420000) can0 0CBE1101#216667A8A9000012
(1654094103.421065) can0 0CBE0111#0581AAAA03001266
(1654094103.424540) can0 0CBE1101#100901000000001A
(1654094103.425251) can0 0CBE1101#21525C5D0000001A
(1654094103.426383) can0 0CBE0111#0481800000001A52
(1654094103.429364) can0 32E#014B4B000000004B
(1654094103.429897) can0 0CBE1101#100A0100000000E2
(1654094103.430765) can0 0CBE1101#21CCCDCECF0000E2
(1654094103.432034) can0 0CBE0111#058100000000E2CC
(1654094103.435483) can0 0CBE1101#10230100000000F8
(1654094103.436274) can0 0CBE1101#213031363744454C
(1654094103.437031) can0 0CBE1101#224D4E4F50515A5B
(1654094103.437773) can0 0CBE1101#235C5D646A6B7C7D
(1654094103.438529) can0 0CBE1101#249E9FA0A1D8D9DA
(1654094103.439261) can0 0CBE1101#25DB9FA0A1D8D9DA
(1654094103.439503) can0 32E#014B4B000000004B
(1654094103.440350) can0 0CBE0111#101E81CAFF1F54FE
(1654094103.440673) can0 0CBE0111#214BF490967FE0FA
(1654094103.441001) can0 0CBE0111#220000EE8EF0A84E
(1654094103.441341) can0 0CBE0111#230000F5A82E0E00
(1654094103.441669) can0 0CBE0111#24800080A1D8D9DA
(1654094103.448110) can0 0CBE1101#100A0100000000F9
(1654094103.448778) can0 0CBE1101#21BABBBCBD0000F9
(1654094103.449986) can0 0CBE0111#058100000000F9BA
(1654094103.450226) can0 32E#014C4C000000004C
(1654094103.453506) can0 0CBE1101#10090100000000FA
(1654094103.454308) can0 0CBE1101#2164656C000000FA
(1654094103.455304) can0 0CBE0111#048100000000FA64
(1654094103.459341) can0 0CBE1101#100E0100000000FD
(1654094103.459790) can0 32E#014C4C000000004C
(1654094103.460064) can0 0CBE1101#2120242526404243
(1654094103.460792) can0 0CBE1101#224D242526404243
(1654094103.461958) can0 0CBE0111#1009814004000080
(1654094103.462280) can0 0CBE0111#2184C04026404243
(1654094103.465343) can0 0CBE1101#100A010000000012
(1654094103.466074) can0 0CBE1101#216667A8A9000012
(1654094103.467262) can0 0CBE0111#0581AAAA03001266
(1654094103.469429) can0 32E#014C4C000000004C
(1654094103.471164) can0 0CBE1101#100901000000001A
(1654094103.471833) can0 0CBE1101#21525C5D0000001A
(1654094103.472923) can0 0CBE0111#0481810000001A52
(1654094103.476637) can0 0CBE1101#100A0100000000E2
(1654094103.477335) can0 0CBE1101#21CCCDCECF0000E2
(1654094103.478571) can0 0CBE0111#058100000000E2CC
(1654094103.479511) can0 32E#014C4C000000004C
(1654094103.482787) can0 0CBE1101#10230100000000F8
(1654094103.483607) can0 0CBE1101#213031363744454C
(1654094103.484355) can0 0CBE1101#224D4E4F50515A5B
(1654094103.485121) can0 0CBE1101#235C5D646A6B7C7D
(1654094103.485853) can0 0CBE1101#249E9FA0A1D8D9DA
(1654094103.486591) can0 0CBE1101#25DB9FA0A1D8D9DA
(1654094103.487539) can0 0CBE0111#101E81CAFF445428
(1654094103.487883) can0 0CBE0111#214C7C8F967FE0FA
(1654094103.488207) can0 0CBE0111#220000EE8EF0C04E
(1654094103.488545) can0 0CBE0111#230000F5A82E0E00
(1654094103.488871) can0 0CBE0111#24800080A1D8D9DA
(1654094103.489583) can0 32E#014C4C000000004C
(1654094103.494588) can0 0CBE1101#100A0100000000F9
(1654094103.495359) can0 0CBE1101#21BABBBCBD0000F9
(1654094103.496524) can0 0CBE0111#058100000000F9BA
(1654094103.499527) can0 32E#014C4C000000004C
(1654094103.500278) can0 0CBE1101#10090100000000FA
(1654094103.501133) can0 0CBE1101#2164656C000000FA
(1654094103.502173) can0 0CBE0111#048100000000FA64
(1654094103.505694) can0 0CBE1101#100E0100000000FD
(1654094103.506398) can0 0CBE1101#2120242526404243
(1654094103.507118) can0 0CBE1101#224D242526404243
(1654094103.508162) can0 0CBE0111#1009814004000080
(1654094103.508500) can0 0CBE0111#2184C04026404243
(1654094103.509504) can0 32E#014B4B000000004B
(1654094103.511858) can0 0CBE1101#100A010000000012
(1654094103.512635) can0 0CBE1101#216667A8A9000012
(1654094103.513800) can0 0CBE0111#0581AAAA03001266
(1654094103.518005) can0 0CBE1101#100901000000001A
(1654094103.518648) can0 0CBE1101#21525C5D0000001A
(1654094103.519792) can0 0CBE0111#0481810000001A52
(1654094103.520041) can0 32E#014B4B000000004B
(1654094103.523436) can0 0CBE1101#100A0100000000E2
(1654094103.524149) can0 0CBE1101#21CCCDCECF0000E2
(1654094103.525108) can0 0CBE0111#058100000000E2CC
(1654094103.529607) can0 32E#014B4B000000004B
(1654094103.529924) can0 0CBE1101#10230100000000F8
(1654094103.530694) can0 0CBE1101#213031363744454C
(1654094103.531428) can0 0CBE1101#224D4E4F50515A5B
(1654094103.532191) can0 0CBE1101#235C5D646A6B7C7D
(1654094103.532932) can0 0CBE1101#249E9FA0A1D8D9DA
(1654094103.533659) can0 0CBE1101#25DB9FA0A1D8D9DA
(1654094103.534746) can0 0CBE0111#101E81CAFF1F54FE
(1654094103.535084) can0 0CBE0111#214BF490967FE0FA
(1654094103.535407) can0 0CBE0111#220000EE8EF09C4E
(1654094103.535754) can0 0CBE0111#230000F5A82E0E00
(1654094103.536079) can0 0CBE0111#24800080A1D8D9DA
(1654094103.539593) can0 32E#014C4C000000004C
(1654094103.542566) can0 0CBE1101#100A0100000000F9
(1654094103.543185) can0 0CBE1101#21BABBBCBD0000F9
(1654094103.544391) can0 0CBE0111#058100000000F9BA
(1654094103.548244) can0 0CBE1101#10090100000000FA
(1654094103.548949) can0 0CBE1101#2164656C000000FA
(1654094103.549637) can0 32E#014C4C000000004C
(1654094103.550041) can0 0CBE0111#048100000000FA64
(1654094103.553718) can0 0CBE1101#100E0100000000FD
(1654094103.554483) can0 0CBE1101#2120242526404243
(1654094103.555186) can0 0CBE1101#224D242526404243
(1654094103.556362) can0 0CBE0111#1009814004000080
(1654094103.556685) can0 0CBE0111#2184C04026404243
(1654094103.559347) can0 0CBE1101#100A010000000012
(1654094103.559617) can0 32E#014C4C000000004C
(1654094103.560216) can0 0CBE1101#216667A8A9000012
(1654094103.561344) can0 0CBE0111#0581AAAA03001266
(1654094103.564720) can0 0CBE1101#100901000000001A
(1654094103.565475) can0 0CBE1101#21525C5D0000001A
(1654094103.566662) can0 0CBE0111#0481810000001A52
(1654094103.570448) can0 0CBE1101#100A0100000000E2
(1654094103.570688) can0 32E#014C4C000000004C
(1654094103.571230) can0 0CBE1101#21CCCDCECF0000E2
(1654094103.572312) can0 0CBE0111#058100000000E2CC
(1654094103.576995) can0 0CBE1101#10230100000000F8
(1654094103.577752) can0 0CBE1101#213031363744454C
(1654094103.578510) can0 0CBE1101#224D4E4F50515A5B
(1654094103.579252) can0 0CBE1101#235C5D646A6B7C7D
(1654094103.580009) can0 0CBE1101#249E9FA0A1D8D9DA
(1654094103.580256) can0 32E#014B4B000000004B
(1654094103.580742) can0 0CBE1101#25DB9FA0A1D8D9DA
(1654094103.581948) can0 0CBE0111#101E81D2FF1F54FE
(1654094103.582280) can0 0CBE0111#214BF490967FE0FA
(1654094103.582618) can0 0CBE0111#220000EE8EF0B24E
(1654094103.582950) can0 0CBE0111#230000F5A82E0E00
(1654094103.583276) can0 0CBE0111#24800080A1D8D9DA
(1654094103.589821) can0 32E#014B4B000000004B
(1654094103.590106) can0 0CBE1101#100A0100000000F9
(1654094103.590506) can0 0CBE1101#21BABBBCBD0000F9
(1654094103.591593) can0 0CBE0111#058100000000F9BA
(1654094103.595377) can0 0CBE1101#10090100000000FA
(1654094103.596019) can0 0CBE1101#2164656C000000FA
(1654094103.597250) can0 0CBE0111#048100000000FA64
(1654094103.599660) can0 32E#014B4B000000004B
(1654094103.601124) can0 0CBE1101#100E0100000000FD
(1654094103.601809) can0 0CBE1101#2120242526404243
(1654094103.602529) can0 0CBE1101#224D242526404243
(1654094103.603565) can0 0CBE0111#1009814004000080
(1654094103.603887) can0 0CBE0111#2184C04026404243
(1654094103.606562) can0 0CBE1101#100A010000000012
(1654094103.607293) can0 0CBE1101#216667A8A9000012
(1654094103.608540) can0 0CBE0111#0581AAAA03001266
(1654094103.609719) can0 32E#014B4B000000004B
(1654094103.612154) can0 0CBE1101#100901000000001A
(1654094103.612811) can0 0CBE1101#21525C5D0000001A
(1654094103.613863) can0 0CBE0111#0481800000001A52
(1654094103.617784) can0 0CBE1101#100A0100000000E2
(1654094103.618562) can0 0CBE1101#21CCCDCECF0000E2
(1654094103.619695) can0 32E#014B4B000000004B
(1654094103.619991) can0 0CBE0111#058100000000E2CC
(1654094103.623315) can0 0CBE1101#10230100000000F8
(1654094103.624078) can0 0CBE1101#213031363744454C
(1654094103.624832) can0 0CBE1101#224D4E4F50515A5B
(1654094103.625594) can0 0CBE1101#235C5D646A6B7C7D
(1654094103.626330) can0 0CBE1101#249E9FA0A1D8D9DA
(1654094103.627064) can0 0CBE1101#25DB9FA0A1D8D9DA
(1654094103.628156) can0 0CBE0111#101E81CAFF1F54FE
(1654094103.628492) can0 0CBE0111#214BF490967FE0FA
(1654094103.628820) can0 0CBE0111#220000EE8EF0A84E
(1654094103.629154) can0 0CBE0111#230000F5A82E0E00
(1654094103.629482) can0 0CBE0111#24800080A1D8D9DA
(1654094103.630712) can0 32E#014B4B000000004B
(1654094103.635225) can0 0CBE1101#100A0100000000F9
(1654094103.636089) can0 0CBE1101#21BABBBCBD0000F9
(1654094103.637141) can0 0CBE0111#058100000000F9BA
(1654094103.640261) can0 32E#014B4B000000004B
(1654094103.641288) can0 0CBE1101#10090100000000FA
(1654094103.642111) can0 0CBE1101#2164656C000000FA
(1654094103.643122) can0 0CBE0111#048100000000FA64
(1654094103.646797) can0 0CBE1101#100E0100000000FD
(1654094103.647635) can0 0CBE1101#2120242526404243
(1654094103.648337) can0 0CBE1101#224D242526404243
(1654094103.649436) can0 0CBE0111#1009814004000080
(1654094103.649760) can0 0CBE0111#2184C04026404243
(1654094103.650002) can0 32E#014B4B000000004B
(1654094103.653174) can0 0CBE1101#100A010000000012
(1654094103.653881) can0 0CBE1101#216667A8A9000012
(1654094103.655075) can0 0CBE0111#0581AAAA03001266
(1654094103.659328) can0 0CBE1101#100901000000001A
(1654094103.659751) can0 32E#014B4B000000004B
(1654094103.660131) can0 0CBE1101#21525C5D0000001A
(1654094103.661397) can0 0CBE0111#0481800000001A52
(1654094103.664676) can0 0CBE1101#100A0100000000E2
(1654094103.665387) can0 0CBE1101#21CCCDCECF0000E2
(1654094103.666383) can0 0CBE0111#058100000000E2CC
(1654094103.669744) can0 32E#014C4C000000004C
(1654094103.670201) can0 0CBE1101#10230100000000F8
(1654094103.670899) can0 0CBE1101#213031363744454C
(1654094103.671658) can0 0CBE1101#224D4E4F50515A5B
(1654094103.672420) can0 0CBE1101#235C5D646A6B7C7D
(1654094103.673155) can0 0CBE1101#249E9FA0A1D8D9DA
(1654094103.673883) can0 0CBE1101#25DB9FA0A1D8D9DA
(1654094103.675020) can0 0CBE0111#101E81CAFF445428
(1654094103.675357) can0 0CBE0111#214C7C8F967FE0FA
(1654094103.675690) can0 0CBE0111#220000EE8EF09C4E
(1654094103.676026) can0 0CBE0111#230000F5A82E0E00
(1654094103.676352) can0 0CBE0111#24800080A1D8D9DA
(1654094103.679828) can0 32E#014C4C000000004C
(1654094103.681988) can0 0CBE1101#100A0100000000F9
(1654094103.682676) can0 0CBE1101#21BABBBCBD0000F9
(1654094103.683672) can0 0CBE0111#058100000000F9BA
(1654094103.687463) can0 0CBE1101#10090100000000FA
(1654094103.688170) can0 0CBE1101#2164656C000000FA
(1654094103.689322) can0 0CBE0111#048100000000FA64
(1654094103.689794) can0 32E#014C4C000000004C
(1654094103.692943) can0 0CBE1101#100E0100000000FD
(1654094103.693708) can0 0CBE1101#2120242526404243
(1654094103.694414) can0 0CBE1101#224D242526404243
(1654094103.695642) can0 0CBE0111#1009814004000080
(1654094103.695974) can0 0CBE0111#2184C04026404243
(1654094103.698644) can0 0CBE1101#100A010000000012
(1654094103.699445) can0 0CBE1101#216667A8A9000012
(1654094103.700507) can0 32E#014C4C000000004C
(1654094103.700782) can0 0CBE0111#0581AAAA03001266
(1654094103.704119) can0 0CBE1101#100901000000001A
(1654094103.704951) can0 0CBE1101#21525C5D0000001A
(1654094103.705940) can0 0CBE0111#0481800000001A52
(1654094103.709503) can0 0CBE1101#100A0100000000E2
(1654094103.709980) can0 32E#014C4C000000004C
(1654094103.710257) can0 0CBE1101#21CCCDCECF0000E2
(1654094103.711258) can0 0CBE0111#058100000000E2CC
(1654094103.715053) can0 0CBE1101#10230100000000F8
(1654094103.715731) can0 0CBE1101#213031363744454C
(1654094103.716486) can0 0CBE1101#224D4E4F50515A5B
(1654094103.717234) can0 0CBE1101#235C5D646A6B7C7D
(1654094103.717983) can0 0CBE1101#249E9FA0A1D8D9DA
(1654094103.718715) can0 0CBE1101#25DB9FA0A1D8D9DA
(1654094103.719845) can0 32E#014C4C000000004C
(1654094103.720121) can0 0CBE0111#101E81FEFF445428
(1654094103.720565) can0 0CBE0111#214C7C8F967FE0FA
(1654094103.720895) can0 0CBE0111#220000EE8EF0C04E
(1654094103.721233) can0 0CBE0111#230000F5A82E0E00
(1654094103.721565) can0 0CBE0111#24800080A1D8D9DA
(1654094103.726728) can0 0CBE1101#100A0100000000F9
(1654094103.727487) can0 0CBE1101#21BABBBCBD0000F9
(1654094103.728548) can0 0CBE0111#058100000000F9BA
(1654094103.729903) can0 32E#014B4B000000004B
(1654094103.733252) can0 0CBE1101#10090100000000FA
(1654094103.734005) can0 0CBE1101#2164656C000000FA
(1654094103.735202) can0 0CBE0111#048100000000FA64
(1654094103.739361) can0 0CBE1101#100E0100000000FD
(1654094103.739898) can0 32E#014B4B000000004B
(1654094103.740172) can0 0CBE1101#2120242526404243
(1654094103.740738) can0 0CBE1101#224D242526404243
(1654094103.741888) can0 0CBE0111#1009814004000080
(1654094103.742170) can0 0CBE0111#2184C04026404243
(1654094103.745401) can0 0CBE1101#100A010000000012
(1654094103.746264) can0 0CBE1101#216667A8A9000012
(1654094103.747486) can0 0CBE0111#0581AAAA03001266
(1654094103.749877) can0 32E#014B4B000000004B
(1654094103.751260) can0 0CBE1101#100901000000001A
(1654094103.752021) can0 0CBE1101#21525C5D0000001A
(1654094103.753142) can0 0CBE0111#0481800000001A52
(1654094103.757389) can0 0CBE1101#100A0100000000E2
(1654094103.758043) can0 0CBE1101#21CCCDCECF0000E2
(1654094103.759126) can0 0CBE0111#058100000000E2CC
(1654094103.760447) can0 32E#014B4B000000004B
(1654094103.763916) can0 0CBE1101#10230100000000F8
(1654094103.764570) can0 0CBE1101#213031363744454C
(1654094103.765305) can0 0CBE1101#224D4E4F50515A5B
(1654094103.766067) can0 0CBE1101#235C5D646A6B7C7D
(1654094103.766823) can0 0CBE1101#249E9FA0A1D8D9DA
(1654094103.767530) can0 0CBE1101#25DB9FA0A1D8D9DA
(1654094103.768763) can0 0CBE0111#101E81D2FFFB53D4
(1654094103.769097) can0 0CBE0111#214BF490B27FE0FA
(1654094103.769425) can0 0CBE0111#220000EE8EF09C4E
(1654094103.769765) can0 0CBE0111#230000F5A82E0E00
(1654094103.770091) can0 0CBE0111#24800080A1D8D9DA
(1654094103.770333) can0 32E#014B4B000000004B
(1654094103.776600) can0 0CBE1101#100A0100000000F9
(1654094103.777325) can0 0CBE1101#21BABBBCBD0000F9
(1654094103.778409) can0 0CBE0111#058100000000F9BA
(1654094103.779935) can0 32E#014B4B000000004B
(1654094103.782376) can0 0CBE1101#10090100000000FA
(1654094103.783085) can0 0CBE1101#2164656C000000FA
(1654094103.784060) can0 0CBE0111#048100000000FA64
(1654094103.788332) can0 0CBE1101#100E0100000000FD
(1654094103.789097) can0 0CBE1101#2120242526404243
(1654094103.789823) can0 0CBE1101#224D242526404243
(1654094103.790063) can0 32E#014C4C000000004C
(1654094103.791045) can0 0CBE0111#1009814004000080
(1654094103.791367) can0 0CBE0111#2184C04026404243
(1654094103.793818) can0 0CBE1101#100A010000000012
(1654094103.794593) can0 0CBE1101#216667A8A9000012
(1654094103.795692) can0 0CBE0111#0581AAAA03001266
(1654094103.799426) can0 0CBE1101#100901000000001A
(1654094103.799995) can0 32E#014B4B000000004B
(1654094103.800258) can0 0CBE1101#21525C5D0000001A
(1654094103.801342) can0 0CBE0111#0481800000001A52
(1654094103.805176) can0 0CBE1101#100A0100000000E2
(1654094103.805868) can0 0CBE1101#21CCCDCECF0000E2
(1654094103.806994) can0 0CBE0111#058100000000E2CC
(1654094103.809987) can0 32E#014B4B000000004B
(1654094103.811580) can0 0CBE1101#10230100000000F8
(1654094103.812395) can0 0CBE1101#213031363744454C
(1654094103.813128) can0 0CBE1101#224D4E4F50515A5B
(1654094103.813890) can0 0CBE1101#235C5D646A6B7C7D
(1654094103.814649) can0 0CBE1101#249E9FA0A1D8D9DA
(1654094103.815367) can0 0CBE1101#25DB9FA0A1D8D9DA
(1654094103.816639) can0 0CBE0111#101E81FEFF1F54FE
(1654094103.817008) can0 0CBE0111#214BF490967FE0FA
(1654094103.817301) can0 0CBE0111#220000EE8EF0C04E
(1654094103.817632) can0 0CBE0111#230000F5A82E0E00
(1654094103.817958) can0 0CBE0111#24800080A1D8D9DA
(1654094103.820773) can0 32E#014B4B000000004B
(1654094103.823546) can0 0CBE1101#100A0100000000F9
(1654094103.824405) can0 0CBE1101#21BABBBCBD0000F9
(1654094103.825611) can0 0CBE0111#058100000000F9BA
(1654094103.829770) can0 0CBE1101#10090100000000FA
(1654094103.830405) can0 0CBE1101#2164656C000000FA
(1654094103.830647) can0 32E#014B4B000000004B
(1654094103.831595) can0 0CBE0111#048100000000FA64
(1654094103.835467) can0 0CBE1101#100E0100000000FD
(1654094103.836185) can0 0CBE1101#2120242526404243
(1654094103.836897) can0 0CBE1101#224D242526404243
(1654094103.837915) can0 0CBE0111#1009814004000080
(1654094103.838237) can0 0CBE0111#2184C04026404243
(1654094103.840044) can0 32E#014B4B000000004B
(1654094103.841417) can0 0CBE1101#100A010000000012
(1654094103.842173) can0 0CBE1101#216667A8A9000012
(1654094103.843221) can0 0CBE0111#0581AAAA03001266
(1654094103.846902) can0 0CBE1101#100901000000001A
(1654094103.847681) can0 0CBE1101#21525C5D0000001A
(1654094103.848878) can0 0CBE0111#0481800000001A52
(1654094103.850115) can0 32E#014B4B000000004B
(1654094103.852914) can0 0CBE1101#100A0100000000E2
(1654094103.853698) can0 0CBE1101#21CCCDCECF0000E2
(1654094103.854861) can0 0CBE0111#058100000000E2CC
(1654094103.858665) can0 0CBE1101#10230100000000F8
(1654094103.859484) can0 0CBE1101#213031363744454C
(1654094103.860078) can0 32E#014B4B000000004B
(1654094103.860348) can0 0CBE1101#224D4E4F50515A5B
(1654094103.860974) can0 0CBE1101#235C5D646A6B7C7D
(1654094103.861710) can0 0CBE1101#249E9FA0A1D8D9DA
(1654094103.862438) can0 0CBE1101#25DB9FA0A1D8D9DA
(1654094103.863502) can0 0CBE0111#101E81FEFF1F54FE
(1654094103.863834) can0 0CBE0111#214BF490967FE0FA
(1654094103.864162) can0 0CBE0111#220000EE8EF0A84E
(1654094103.864502) can0 0CBE0111#230000F5A82E0E00
(1654094103.864828) can0 0CBE0111#24800080A1D8D9DA
(1654094103.870073) can0 32E#014B4B000000004B
(1654094103.870420) can0 0CBE1101#100A0100000000F9
(1654094103.871224) can0 0CBE1101#21BABBBCBD0000F9
(1654094103.872481) can0 0CBE0111#058100000000F9BA
(1654094103.875775) can0 0CBE1101#10090100000000FA
(1654094103.876479) can0 0CBE1101#2164656C000000FA
(1654094103.877466) can0 0CBE0111#048100000000FA64
(1654094103.880955) can0 32E#014B4B000000004B
(1654094103.881370) can0 0CBE1101#100E0100000000FD
(1654094103.882244) can0 0CBE1101#2120242526404243
(1654094103.882970) can0 0CBE1101#224D242526404243
(1654094103.884121) can0 0CBE0111#1009814004000080
(1654094103.884442) can0 0CBE0111#2184C04026404243
(1654094103.888037) can0 0CBE1101#100A010000000012
(1654094103.888745) can0 0CBE1101#216667A8A9000012
(1654094103.889759) can0 0CBE0111#0581AAAA03001266
(1654094103.890603) can0 32E#014C4C000000004C
(1654094103.893787) can0 0CBE1101#100901000000001A
(1654094103.894499) can0 0CBE1101#21525C5D0000001A
(1654094103.895753) can0 0CBE0111#0481800000001A52
(1654094103.899402) can0 0CBE1101#100A0100000000E2
(1654094103.900269) can0 0CBE1101#21CCCDCECF0000E2
(1654094103.900509) can0 32E#014C4C000000004C
(1654094103.901399) can0 0CBE0111#058100000000E2CC
(1654094103.905230) can0 0CBE1101#10230100000000F8
(1654094103.906043) can0 0CBE1101#213031363744454C
(1654094103.906797) can0 0CBE1101#224D4E4F50515A5B
(1654094103.907539) can0 0CBE1101#235C5D646A6B7C7D
(1654094103.908300) can0 0CBE1101#249E9FA0A1D8D9DA
(1654094103.909027) can0 0CBE1101#25DB9FA0A1D8D9DA
(1654094103.910035) can0 0CBE0111#101E81FEFF445428
(1654094103.910275) can0 32E#014C4C000000004C
(1654094103.910555) can0 0CBE0111#214C7C8F967FE0FA
(1654094103.911031) can0 0CBE0111#220000EE8EF09C4E
(1654094103.911378) can0 0CBE0111#230000F5A82E0E00
(1654094103.911697) can0 0CBE0111#24800080A1D8D9DA
(1654094103.917678) can0 0CBE1101#100A0100000000F9
(1654094103.918290) can0 0CBE1101#21BABBBCBD0000F9
(1654094103.919350) can0 0CBE0111#058100000000F9BA
(1654094103.920169) can0 32E#014B4B000000004B
(1654094103.923304) can0 0CBE1101#10090100000000FA
(1654094103.924059) can0 0CBE1101#2164656C000000FA
(1654094103.925334) can0 0CBE0111#048100000000FA64
(1654094103.929319) can0 0CBE1101#100E0100000000FD
(1654094103.930084) can0 0CBE1101#2120242526404243
(1654094103.930326) can0 32E#014B4B000000004B
(1654094103.930810) can0 0CBE1101#224D242526404243
(1654094103.932001) can0 0CBE0111#1009814004000080
(1654094103.932310) can0 0CBE0111#2184C04026404243
(1654094103.935027) can0 0CBE1101#100A010000000012
(1654094103.935824) can0 0CBE1101#216667A8A9000012
(1654094103.936961) can0 0CBE0111#0581AAAA03001266
(1654094103.940397) can0 0CBE1101#100901000000001A
(1654094103.941084) can0 0CBE1101#21525C5D0000001A
(1654094103.941326) can0 32E#014B4B000000004B
(1654094103.942284) can0 0CBE0111#0481800000001A52
(1654094103.946847) can0 0CBE1101#100A0100000000E2
(1654094103.947607) can0 0CBE1101#21CCCDCECF0000E2
(1654094103.948601) can0 0CBE0111#058100000000E2CC
(1654094103.950485) can0 32E#014B4B000000004B
(1654094103.952915) can0 0CBE1101#10230100000000F8
(1654094103.953617) can0 0CBE1101#213031363744454C
(1654094103.954359) can0 0CBE1101#224D4E4F50515A5B
(1654094103.955125) can0 0CBE1101#235C5D646A6B7C7D
(1654094103.955887) can0 0CBE1101#249E9FA0A1D8D9DA
(1654094103.956595) can0 0CBE1101#25DB9FA0A1D8D9DA
(1654094103.957573) can0 0CBE0111#101E8192FF1F54FE
(1654094103.957905) can0 0CBE0111#214BF490967FE0FA
(1654094103.958233) can0 0CBE0111#220000EE8EF0A84E
(1654094103.958575) can0 0CBE0111#230000F5A82E0E00
(1654094103.958901) can0 0CBE0111#24800080A1D8D9DA
(1654094103.960298) can0 32E#014B4B000000004B
(1654094103.964614) can0 0CBE1101#100A0100000000F9
(1654094103.965369) can0 0CBE1101#21BABBBCBD0000F9
(1654094103.966553) can0 0CBE0111#058100000000F9BA
(1654094103.970244) can0 32E#014B4B000000004B
(1654094103.970723) can0 0CBE1101#10090100000000FA
(1654094103.971390) can0 0CBE1101#2164656C000000FA
(1654094103.972536) can0 0CBE0111#048100000000FA64
(1654094103.976655) can0 0CBE1101#100E0100000000FD
(1654094103.977414) can0 0CBE1101#2120242526404243
(1654094103.978120) can0 0CBE1101#224D242526404243
(1654094103.979190) can0 0CBE0111#1009814004000080
(1654094103.979512) can0 0CBE0111#2184C04026404243
(1654094103.980270) can0 32E#014B4B000000004B
(1654094103.982228) can0 0CBE1101#100A010000000012
(1654094103.982916) can0 0CBE1101#216667A8A9000012
(1654094103.984164) can0 0CBE0111#0581AAAA03001266
(1654094103.988401) can0 0CBE1101#100901000000001A
(1654094103.989156) can0 0CBE1101#21525C5D0000001A
(1654094103.990154) can0 0CBE0111#0481810000001A52
(1654094103.990394) can0 32E#014C4C000000004C
(1654094103.993793) can0 0CBE1101#100A0100000000E2
(1654094103.994416) can0 0CBE1101#21CCCDCECF0000E2
(1654094103.995476) can0 0CBE0111#058100000000E2CC
(1654094103.999469) can0 0CBE1101#10230100000000F8
(1654094104.000191) can0 0CBE1101#213031363744454C
(1654094104.000945) can0 0CBE1101#224D4E4F50515A5B
(1654094104.001366) can0 32E#014C4C000000004C
(1654094104.001711) can0 0CBE1101#235C5D646A6B7C7D
(1654094104.002446) can0 0CBE1101#249E9FA0A1D8D9DA
(1654094104.003175) can0 0CBE1101#25DB9FA0A1D8D9DA
(1654094104.004442) can0 0CBE0111#101E81FEFF445428
(1654094104.004779) can0 0CBE0111#214C7C8F967FE0FA
(1654094104.005105) can0 0CBE0111#220000EE8EF0A84E
(1654094104.005445) can0 0CBE0111#230000F5A82E0E00
(1654094104.005770) can0 0CBE0111#24800080A1D8D9DA
(1654094104.010786) can0 32E#014C4C000000004C
(1654094104.012229) can0 0CBE1101#100A0100000000F9
(1654094104.012971) can0 0CBE1101#21BABBBCBD0000F9
(1654094104.014087) can0 0CBE0111#058100000000F9BA
(1654094104.018264) can0 0CBE1101#10090100000000FA
(1654094104.018973) can0 0CBE1101#2164656C000000FA
(1654094104.020072) can0 0CBE0111#048100000000FA64
(1654094104.020491) can0 32E#014B4B000000004B
(1654094104.024368) can0 0CBE1101#100E0100000000FD
(1654094104.025241) can0 0CBE1101#2120242526404243
(1654094104.025944) can0 0CBE1101#224D242526404243
(1654094104.027057) can0 0CBE0111#1009814004000080
(1654094104.027379) can0 0CBE0111#2184C04026404243
(1654094104.029810) can0 0CBE1101#100A010000000012
(1654094104.030378) can0 32E#014B4B000000004B
(1654094104.030646) can0 0CBE1101#216667A8A9000012
(1654094104.031698) can0 0CBE0111#0581AAAA03001266
(1654094104.035185) can0 0CBE1101#100901000000001A
(1654094104.036002) can0 0CBE1101#21525C5D0000001A
(1654094104.037024) can0 0CBE0111#0481800000001A52
(1654094104.040372) can0 32E#014B4B000000004B
(1654094104.041246) can0 0CBE1101#100A0100000000E2
(1654094104.042002) can0 0CBE1101#21CCCDCECF0000E2
(1654094104.043006) can0 0CBE0111#058100000000E2CC
(1654094104.046761) can0 0CBE1101#10230100000000F8
(1654094104.047531) can0 0CBE1101#213031363744454C
(1654094104.048280) can0 0CBE1101#224D4E4F50515A5B
(1654094104.049022) can0 0CBE1101#235C5D646A6B7C7D
(1654094104.049778) can0 0CBE1101#249E9FA0A1D8D9DA
(1654094104.050380) can0 32E#014B4B000000004B
(1654094104.050658) can0 0CBE1101#25DB9FA0A1D8D9DA
(1654094104.051642) can0 0CBE0111#101E81FEFF4454F4
(1654094104.051988) can0 0CBE0111#214BF490967FE0FA
(1654094104.052306) can0 0CBE0111#220000EE8EF0A84E
(1654094104.052646) can0 0CBE0111#230000F5A82E0E00
(1654094104.052972) can0 0CBE0111#24800080A1D8D9DA
(1654094104.058850) can0 0CBE1101#100A0100000000F9
(1654094104.059525) can0 0CBE1101#21BABBBCBD0000F9
(1654094104.060415) can0 32E#014B4B000000004B
(1654094104.060699) can0 0CBE0111#058100000000F9BA
(1654094104.064336) can0 0CBE1101#10090100000000FA
(1654094104.065045) can0 0CBE1101#2164656C000000FA
(1654094104.066277) can0 0CBE0111#048100000000FA64
(1654094104.070422) can0 0CBE1101#100E0100000000FD
(1654094104.070851) can0 32E#014B4B000000004B
(1654094104.071125) can0 0CBE1101#2120242526404243
(1654094104.071779) can0 0CBE1101#224D242526404243
(1654094104.072936) can0 0CBE0111#1009814004000080
(1654094104.073253) can0 0CBE0111#2184C04026404243
(1654094104.076156) can0 0CBE1101#100A010000000012
(1654094104.076799) can0 0CBE1101#216667A8A9000012
(1654094104.077903) can0 0CBE0111#0581AAAA03001266
(1654094104.080614) can0 32E#014C4C000000004C
(1654094104.082170) can0 0CBE1101#100901000000001A
(1654094104.082813) can0 0CBE1101#21525C5D0000001A
(1654094104.083891) can0 0CBE0111#0481800000001A52
(1654094104.088254) can0 0CBE1101#100A0100000000E2
(1654094104.089078) can0 0CBE1101#21CCCDCECF0000E2
(1654094104.090208) can0 0CBE0111#058100000000E2CC
(1654094104.090484) can0 32E#014C4C000000004C
(1654094104.093894) can0 0CBE1101#10230100000000F8
(1654094104.094592) can0 0CBE1101#213031363744454C
(1654094104.095356) can0 0CBE1101#224D4E4F50515A5B
(1654094104.096112) can0 0CBE1101#235C5D646A6B7C7D
(1654094104.096848) can0 0CBE1101#249E9FA0A1D8D9DA
(1654094104.097576) can0 0CBE1101#25DB9FA0A1D8D9DA
(1654094104.098846) can0 0CBE0111#101E81FEFF445428
(1654094104.099182) can0 0CBE0111#214C7C8F967FE0FA
(1654094104.099510) can0 0CBE0111#220000EE8EF0A84E
(1654094104.099850) can0 0CBE0111#230000F5A82E0E00
(1654094104.100177) can0 0CBE0111#24800080A1D8D9DA
(1654094104.100582) can0 32E#014C4C000000004C
(1654094104.105595) can0 0CBE1101#100A0100000000F9
(1654094104.106360) can0 0CBE1101#21BABBBCBD0000F9
(1654094104.107496) can0 0CBE0111#058100000000F9BA
(1654094104.110503) can0 32E#014B4B000000004B
(1654094104.111234) can0 0CBE1101#10090100000000FA
(1654094104.111862) can0 0CBE1101#2164656C000000FA
(1654094104.112815) can0 0CBE0111#048100000000FA64
(1654094104.116839) can0 0CBE1101#100E0100000000FD
(1654094104.117629) can0 0CBE1101#2120242526404243
(1654094104.118354) can0 0CBE1101#224D242526404243
(1654094104.119507) can0 0CBE0111#1009814004000080
(1654094104.119791) can0 0CBE0111#2184C04026404243
(1654094104.120669) can0 32E#014B4B000000004B
(1654094104.123231) can0 0CBE1101#100A010000000012
(1654094104.123895) can0 0CBE1101#216667A8A9000012
(1654094104.125105) can0 0CBE0111#0581AAAA03001266
(1654094104.129329) can0 0CBE1101#100901000000001A
(1654094104.130157) can0 0CBE1101#21525C5D0000001A
(1654094104.131295) can0 32E#014B4B000000004B
(1654094104.131575) can0 0CBE0111#0481800000001A52
(1654094104.135384) can0 0CBE1101#100A0100000000E2
(1654094104.136161) can0 0CBE1101#21CCCDCECF0000E2
(1654094104.137411) can0 0CBE0111#058100000000E2CC
(1654094104.140664) can0 32E#014B4B000000004B
(1654094104.141373) can0 0CBE1101#10230100000000F8
(1654094104.142188) can0 0CBE1101#213031363744454C
(1654094104.142921) can0 0CBE1101#224D4E4F50515A5B
(1654094104.143683) can0 0CBE1101#235C5D646A6B7C7D
(1654094104.144420) can0 0CBE1101#249E9FA0A1D8D9DA
(1654094104.145147) can0 0CBE1101#25DB9FA0A1D8D9DA
(1654094104.146383) can0 0CBE0111#101E81FEFF1F54FE
(1654094104.146716) can0 0CBE0111#214BF490967FE0FA
(1654094104.147043) can0 0CBE0111#220000EE8EF0A84E
(1654094104.147384) can0 0CBE0111#230000F5A82E0E00
(1654094104.147710) can0 0CBE0111#24800080A1D8D9DA
(1654094104.150595) can0 32E#014B4B000000004B
(1654094104.153044) can0 0CBE1101#100A0100000000F9
(1654094104.153688) can0 0CBE1101#21BABBBCBD0000F9
(1654094104.154708) can0 0CBE0111#058100000000F9BA
(1654094104.158557) can0 0CBE1101#10090100000000FA
(1654094104.159198) can0 0CBE1101#2164656C000000FA
(1654094104.160348) can0 0CBE0111#048100000000FA64
(1654094104.160686) can0 32E#014B4B000000004B
(1654094104.164135) can0 0CBE1101#100E0100000000FD
(1654094104.164968) can0 0CBE1101#2120242526404243
(1654094104.165674) can0 0CBE1101#224D242526404243
(1654094104.166676) can0 0CBE0111#1009814004000080
(1654094104.166992) can0 0CBE0111#2184C04026404243
(1654094104.169655) can0 0CBE1101#100A010000000012
(1654094104.170454) can0 0CBE1101#216667A8A9000012
(1654094104.170703) can0 32E#014B4B000000004B
(1654094104.171642) can0 0CBE0111#0581AAAA03001266
(1654094104.175216) can0 0CBE1101#100901000000001A
(1654094104.176017) can0 0CBE1101#21525C5D0000001A
(1654094104.176970) can0 0CBE0111#0481810000001A52
(1654094104.180588) can0 32E#014B4B000000004B
(1654094104.181365) can0 0CBE1101#100A0100000000E2
(1654094104.182229) can0 0CBE1101#21CCCDCECF0000E2
(1654094104.183283) can0 0CBE0111#058100000000E2CC
(1654094104.186949) can0 0CBE1101#10230100000000F8
(1654094104.187763) can0 0CBE1101#213031363744454C
(1654094104.188497) can0 0CBE1101#224D4E4F50515A5B
(1654094104.189259) can0 0CBE1101#235C5D646A6B7C7D
(1654094104.189995) can0 0CBE1101#249E9FA0A1D8D9DA
(1654094104.190723) can0 0CBE1101#25DB9FA0A1D8D9DA
(1654094104.191527) can0 32E#014B4B000000004B
(1654094104.191925) can0 0CBE0111#101E81CAFF1F54FE
(1654094104.192262) can0 0CBE0111#214BF490967FE0FA
(1654094104.192611) can0 0CBE0111#220000EE8EF09C4E
(1654094104.192925) can0 0CBE0111#230000F5A82E0E00
(1654094104.193251) can0 0CBE0111#24800080A1D8D9DA
(1654094104.199480) can0 0CBE1101#100A0100000000F9
(1654094104.200260) can0 0CBE1101#21BABBBCBD0000F9
(1654094104.200987) can0 32E#014B4B000000004B
(1654094104.201271) can0 0CBE0111#058100000000F9BA
(1654094104.205344) can0 0CBE1101#10090100000000FA
(1654094104.206030) can0 0CBE1101#2164656C000000FA
(1654094104.207219) can0 0CBE0111#048100000000FA64
(1654094104.210649) can0 32E#014C4C000000004C
(1654094104.211260) can0 0CBE1101#100E0100000000FD
(1654094104.212057) can0 0CBE1101#2120242526404243
(1654094104.212756) can0 0CBE1101#224D242526404243
(1654094104.213871) can0 0CBE0111#1009814004000080
(1654094104.214194) can0 0CBE0111#2184C04026404243
(1654094104.217248) can0 0CBE1101#100A010000000012
(1654094104.218048) can0 0CBE1101#216667A8A9000012
(1654094104.219178) can0 0CBE0111#0581AAAA03001266
(1654094104.220649) can0 32E#014C4C000000004C
(1654094104.222644) can0 0CBE1101#100901000000001A
(1654094104.223288) can0 0CBE1101#21525C5D0000001A
(1654094104.224503) can0 0CBE0111#0481800000001A52
(1654094104.228617) can0 0CBE1101#100A0100000000E2
(1654094104.229308) can0 0CBE1101#21CCCDCECF0000E2
(1654094104.230486) can0 0CBE0111#058100000000E2CC
(1654094104.230726) can0 32E#014C4C000000004C
(1654094104.234363) can0 0CBE1101#10230100000000F8
(1654094104.235078) can0 0CBE1101#213031363744454C
(1654094104.235837) can0 0CBE1101#224D4E4F50515A5B
(1654094104.236579) can0 0CBE1101#235C5D646A6B7C7D
(1654094104.237341) can0 0CBE1101#249E9FA0A1D8D9DA
(1654094104.238043) can0 0CBE1101#25DB9FA0A1D8D9DA
(1654094104.239123) can0 0CBE0111#101E81FEFF4454F4
(1654094104.239459) can0 0CBE0111#214BF490967FE0FA
(1654094104.239787) can0 0CBE0111#220000EE8EF09C4E
(1654094104.240127) can0 0CBE0111#230000F5A82E0E00
(1654094104.240461) can0 0CBE0111#24800080A1D8D9DA
(1654094104.240739) can0 32E#014B4B000000004B
(1654094104.246485) can0 0CBE1101#100A0100000000F9
(1654094104.247329) can0 0CBE1101#21BABBBCBD0000F9
(1654094104.248437) can0 0CBE0111#058100000000F9BA
(1654094104.251623) can0 32E#014B4B000000004B
(1654094104.252110) can0 0CBE1101#10090100000000FA
(1654094104.252843) can0 0CBE1101#2164656C000000FA
(1654094104.254089) can0 0CBE0111#048100000000FA64
(1654094104.257662) can0 0CBE1101#100E0100000000FD
(1654094104.258359) can0 0CBE1101#2120242526404243
(1654094104.259085) can0 0CBE1101#224D242526404243
(1654094104.260078) can0 0CBE0111#1009814004000080
(1654094104.260400) can0 0CBE0111#2184C04026404243
(1654094104.261063) can0 32E#014B4B000000004B
(1654094104.263845) can0 0CBE1101#100A010000000012
(1654094104.264622) can0 0CBE1101#216667A8A9000012
(1654094104.265729) can0 0CBE0111#0581AAAA03001266
(1654094104.270226) can0 0CBE1101#100901000000001A
(1654094104.270750) can0 32E#014B4B000000004B
(1654094104.271036) can0 0CBE1101#21525C5D0000001A
(1654094104.272038) can0 0CBE0111#0481800000001A52
(1654094104.275592) can0 0CBE1101#100A0100000000E2
(1654094104.276376) can0 0CBE1101#21CCCDCECF0000E2
(1654094104.277356) can0 0CBE0111#058100000000E2CC
(1654094104.280963) can0 32E#014B4B000000004B
(1654094104.281282) can0 0CBE1101#10230100000000F8
(1654094104.282150) can0 0CBE1101#213031363744454C
(1654094104.282908) can0 0CBE1101#224D4E4F50515A5B
(1654094104.283652) can0 0CBE1101#235C5D646A6B7C7D
(1654094104.284407) can0 0CBE1101#249E9FA0A1D8D9DA
(1654094104.285134) can0 0CBE1101#25DB9FA0A1D8D9DA
(1654094104.286330) can0 0CBE0111#101E81CAFF1F54FE
(1654094104.286660) can0 0CBE0111#214BF490967FE0FA
(1654094104.286988) can0 0CBE0111#220000EE8EF0A84E
(1654094104.287334) can0 0CBE0111#230000F5A82E0E00
(1654094104.287656) can0 0CBE0111#24800080A1D8D9DA
(1654094104.290833) can0 32E#014B4B000000004B
(1654094104.293217) can0 0CBE1101#100A0100000000F9
(1654094104.293905) can0 0CBE1101#21BABBBCBD0000F9
(1654094104.294976) can0 0CBE0111#058100000000F9BA
(1654094104.299309) can0 0CBE1101#10090100000000FA
(1654094104.300171) can0 0CBE1101#2164656C000000FA
(1654094104.300837) can0 32E#014C4C000000004C
(1654094104.301291) can0 0CBE0111#048100000000FA64
(1654094104.302985) can0 0CBCA141#FF9DD32880000000
(1654094104.305529) can0 0CBE1101#100E0100000000FD
(1654094104.306203) can0 0CBE1101#2120242526404243
(1654094104.306905) can0 0CBE1101#224D242526404243
(1654094104.307945) can0 0CBE0111#1009814004000080
(1654094104.308273) can0 0CBE0111#2184C04026404243
(1654094104.311281) can0 0CBE1101#100A010000000012
(1654094104.311865) can0 32E#014C4C000000004C
(1654094104.312142) can0 0CBE1101#216667A8A9000012
(1654094104.313251) can0 0CBE0111#0581AAAA10001266
(1654094104.313955) can0 0CBCA141#FF9DD32980000000
(1654094104.317140) can0 0CBE1101#100901000000001A
(1654094104.317943) can0 0CBE1101#21525C5D0000001A
(1654094104.318909) can0 0CBE0111#0481810000001A52
(1654094104.321424) can0 32E#014C4C000000004C
(1654094104.322710) can0 0CBE1101#100A0100000000E2
(1654094104.323466) can0 0CBE1101#21CCCDCECF0000E2
(1654094104.324560) can0 0CBE0111#058100000000E2CC
(1654094104.329110) can0 0CBE1101#10230100000000F8
(1654094104.329984) can0 0CBE1101#213031363744454C
(1654094104.330748) can0 0CBE1101#224D4E4F50515A5B
(1654094104.331098) can0 32E#014B4B000000004B
(1654094104.331482) can0 0CBE1101#235C5D646A6B7C7D
(1654094104.332238) can0 0CBE1101#249E9FA0A1D8D9DA
(1654094104.332951) can0 0CBE1101#25DB9FA0A1D8D9DA
(1654094104.334197) can0 0CBE0111#101E81FEFF4454F4
(1654094104.334533) can0 0CBE0111#214BF490967FE0FA
(1654094104.334863) can0 0CBE0111#220000EE8EF0B44E
(1654094104.335201) can0 0CBE0111#230000F5A82E0E00
(1654094104.335527) can0 0CBE0111#24800080A1D8D9DA
(1654094104.340913) can0 32E#014B4B000000004B
(1654094104.341430) can0 0CBE1101#100A0100000000F9
(1654094104.342234) can0 0CBE1101#21BABBBCBD0000F9
(1654094104.343508) can0 0CBE0111#058100000000F9BA
(1654094104.347761) can0 0CBE1101#10090100000000FA
(1654094104.348501) can0 0CBE1101#2164656C000000FA
(1654094104.349490) can0 0CBE0111#048100000000FA64
(1654094104.350991) can0 32E#014B4B000000004B
(1654094104.354259) can0 0CBE1101#100E0100000000FD
(1654094104.355025) can0 0CBE1101#2120242526404243
(1654094104.355751) can0 0CBE1101#224D242526404243
(1654094104.356810) can0 0CBE0111#1009814004000080
(1654094104.357131) can0 0CBE0111#2184C04026404243
(1654094104.360250) can0 0CBE1101#100A010000000012
(1654094104.360877) can0 32E#014B4B000000004B
(1654094104.361153) can0 0CBE1101#216667A8A9000012
(1654094104.362115) can0 0CBE0111#0581AAAA10001266
(1654094104.365968) can0 0CBE1101#100901000000001A
(1654094104.366767) can0 0CBE1101#21525C5D0000001A
(1654094104.367771) can0 0CBE0111#0481800000001A52
(1654094104.370914) can0 32E#014B4B000000004B
(1654094104.371983) can0 0CBE1101#100A0100000000E2
(1654094104.372784) can0 0CBE1101#21CCCDCECF0000E2
(1654094104.373755) can0 0CBE0111#058100000000E2CC
(1654094104.378526) can0 0CBE1101#10230100000000F8
(1654094104.379315) can0 0CBE1101#213031363744454C
(1654094104.380050) can0 0CBE1101#224D4E4F50515A5B
(1654094104.380811) can0 0CBE1101#235C5D646A6B7C7D
(1654094104.381572) can0 0CBE1101#249E9FA0A1D8D9DA
(1654094104.381814) can0 32E#014B4B000000004B
(1654094104.382280) can0 0CBE1101#25DB9FA0A1D8D9DA
(1654094104.383394) can0 0CBE0111#101E81CAFF1F54FE
(1654094104.383723) can0 0CBE0111#214BF490967FE0FA
(1654094104.384054) can0 0CBE0111#220000EE8EF0A84E
(1654094104.384394) can0 0CBE0111#230000F5A82E0E00
(1654094104.384726) can0 0CBE0111#24800080A1D8D9DA
(1654094104.390261) can0 0CBE1101#100A0100000000F9
(1654094104.391064) can0 0CBE1101#21BABBBCBD0000F9
(1654094104.391306) can0 32E#014B4B000000004B
(1654094104.392046) can0 0CBE0111#058100000000F9BA
(1654094104.395632) can0 0CBE1101#10090100000000FA
(1654094104.396319) can0 0CBE1101#2164656C000000FA
(1654094104.397358) can0 0CBE0111#048100000000FA64
(1654094104.400975) can0 32E#014B4B000000004B
(1654094104.401274) can0 0CBE1101#100E0100000000FD
(1654094104.402108) can0 0CBE1101#2120242526404243
(1654094104.402810) can0 0CBE1101#224D242526404243
(1654094104.404011) can0 0CBE0111#1009814004000080
(1654094104.404344) can0 0CBE0111#2184C04026404243
(1654094104.406694) can0 0CBE1101#100A010000000012
(1654094104.407341) can0 0CBE1101#216667A8A9000012
(1654094104.408321) can0 0CBE0111#0581AAAA10001266
(1654094104.411072) can0 32E#014B4B000000004B
(1654094104.412153) can0 0CBE1101#100901000000001A
(1654094104.412860) can0 0CBE1101#21525C5D0000001A
(1654094104.413981) can0 0CBE0111#0481810000001A52
(1654094104.418371) can0 0CBE1101#100A0100000000E2
(1654094104.419111) can0 0CBE1101#21CCCDCECF0000E2
(1654094104.420294) can0 0CBE0111#058100000000E2CC
(1654094104.421037) can0 32E#014B4B000000004B
(1654094104.423923) can0 0CBE1101#10230100000000F8
(1654094104.424649) can0 0CBE1101#213031363744454C
(1654094104.425379) can0 0CBE1101#224D4E4F50515A5B
(1654094104.426149) can0 0CBE1101#235C5D646A6B7C7D
(1654094104.426881) can0 0CBE1101#249E9FA0A1D8D9DA
(1654094104.427619) can0 0CBE1101#25DB9FA0A1D8D9DA
(1654094104.428596) can0 0CBE0111#101E81CAFF445428
(1654094104.428935) can0 0CBE0111#214C7C8F967FE0FA
(1654094104.429263) can0 0CBE0111#220000EE8EF0B44E
(1654094104.429601) can0 0CBE0111#230000F5A82E0E00
(1654094104.429927) can0 0CBE0111#24800080A1D8D9DA
(1654094104.430987) can0 32E#014C4C000000004C
(1654094104.435900) can0 0CBE1101#100A0100000000F9
(1654094104.436642) can0 0CBE1101#21BABBBCBD0000F9
(1654094104.437913) can0 0CBE0111#058100000000F9BA
(1654094104.442030) can0 32E#014C4C000000004C
(1654094104.442320) can0 0CBE1101#10090100000000FA
(1654094104.442910) can0 0CBE1101#2164656C000000FA
(1654094104.443896) can0 0CBE0111#048100000000FA64
(1654094104.448261) can0 0CBE1101#100E0100000000FD
(1654094104.448944) can0 0CBE1101#2120242526404243
(1654094104.449640) can0 0CBE1101#224D242526404243
(1654094104.450882) can0 0CBE0111#1009814004000080
(1654094104.451204) can0 0CBE0111#2184C04026404243
(1654094104.451444) can0 32E#014C4C000000004C
(1654094104.454355) can0 0CBE1101#100A010000000012
(1654094104.455174) can0 0CBE1101#216667A8A9000012
(1654094104.456187) can0 0CBE0111#0581AAAA10001266
(1654094104.460548) can0 0CBE1101#100901000000001A
(1654094104.461121) can0 32E#014B4B000000004B
(1654094104.461401) can0 0CBE1101#21525C5D0000001A
(1654094104.462508) can0 0CBE0111#0481800000001A52
(1654094104.466527) can0 0CBE1101#100A0100000000E2
(1654094104.467195) can0 0CBE1101#21CCCDCECF0000E2
(1654094104.468161) can0 0CBE0111#058100000000E2CC
(1654094104.471097) can0 32E#014B4B000000004B
(1654094104.472233) can0 0CBE1101#10230100000000F8
(1654094104.472959) can0 0CBE1101#213031363744454C
(1654094104.473719) can0 0CBE1101#224D4E4F50515A5B
(1654094104.474485) can0 0CBE1101#235C5D646A6B7C7D
(1654094104.475211) can0 0CBE1101#249E9FA0A1D8D9DA
(1654094104.475943) can0 0CBE1101#25DB9FA0A1D8D9DA
(1654094104.477133) can0 0CBE0111#101E81FEFF1F54FE
(1654094104.477471) can0 0CBE0111#214BF490967FE0FA
(1654094104.477793) can0 0CBE0111#220000EE8EF0A84E
(1654094104.478133) can0 0CBE0111#230000F5A82E0E00
(1654094104.478459) can0 0CBE0111#24800080A1D8D9DA
(1654094104.481070) can0 32E#014B4B000000004B
(1654094104.483917) can0 0CBE1101#100A0100000000F9
(1654094104.484721) can0 0CBE1101#21BABBBCBD0000F9
(1654094104.485785) can0 0CBE0111#058100000000F9BA
(1654094104.489324) can0 0CBE1101#10090100000000FA
(1654094104.489985) can0 0CBE1101#2164656C000000FA
(1654094104.491104) can0 0CBE0111#048100000000FA64
(1654094104.491346) can0 32E#014B4B000000004B
(1654094104.494961) can0 0CBE1101#100E0100000000FD
(1654094104.495743) can0 0CBE1101#2120242526404243
(1654094104.496470) can0 0CBE1101#224D242526404243
(1654094104.497751) can0 0CBE0111#1009814004000080
(1654094104.498114) can0 0CBE0111#2184C04026404243
(1654094104.501356) can0 0CBE1101#100A010000000012
(1654094104.502000) can0 0CBE1101#216667A8A9000012
(1654094104.502242) can0 32E#014B4B000000004B
(1654094104.503058) can0 0CBE0111#0581AAAA10001266
(1654094104.506814) can0 0CBE1101#100901000000001A
(1654094104.507508) can0 0CBE1101#21525C5D0000001A
(1654094104.508716) can0 0CBE0111#0481810000001A52
(1654094104.511634) can0 32E#014B4B000000004B
(1654094104.512961) can0 0CBE1101#100A0100000000E2
(1654094104.513764) can0 0CBE1101#21CCCDCECF0000E2
(1654094104.515030) can0 0CBE0111#058100000000E2CC
(1654094104.519537) can0 0CBE1101#10230100000000F8
(1654094104.520283) can0 0CBE1101#213031363744454C
(1654094104.521036) can0 0CBE1101#224D4E4F50515A5B
(1654094104.521324) can0 32E#014B4B000000004B
(1654094104.521800) can0 0CBE1101#235C5D646A6B7C7D
(1654094104.522536) can0 0CBE1101#249E9FA0A1D8D9DA
(1654094104.523264) can0 0CBE1101#25DB9FA0A1D8D9DA
(1654094104.524337) can0 0CBE0111#101E81FEFF4454C1
(1654094104.524666) can0 0CBE0111#214BF490967FE0FA
(1654094104.525004) can0 0CBE0111#220000EE8EF0C04E
(1654094104.525336) can0 0CBE0111#230000F5A82E0E00
(1654094104.525662) can0 0CBE0111#24800080A1D8D9DA
(1654094104.531175) can0 32E#014B4B000000004B
(1654094104.531471) can0 0CBE1101#100A0100000000F9
(1654094104.532295) can0 0CBE1101#21BABBBCBD0000F9
(1654094104.533315) can0 0CBE0111#058100000000F9BA
(1654094104.537819) can0 0CBE1101#10090100000000FA
(1654094104.538553) can0 0CBE1101#2164656C000000FA
(1654094104.539631) can0 0CBE0111#048100000000FA64
(1654094104.541232) can0 32E#014B4B000000004B
(1654094104.543275) can0 0CBE1101#100E0100000000FD
(1654094104.544086) can0 0CBE1101#2120242526404243
(1654094104.544791) can0 0CBE1101#224D242526404243
(1654094104.545951) can0 0CBE0111#1009814004000080
(1654094104.546279) can0 0CBE0111#2184C04026404243
(1654094104.549384) can0 0CBE1101#100A010000000012
(1654094104.550071) can0 0CBE1101#216667A8A9000012
(1654094104.551258) can0 0CBE0111#0581AAAA10001266
(1654094104.551499) can0 32E#014B4B000000004B
(1654094104.554832) can0 0CBE1101#100901000000001A
(1654094104.555588) can0 0CBE1101#21525C5D0000001A
(1654094104.556589) can0 0CBE0111#0481800000001A52
(1654094104.561292) can0 0CBE1101#100A0100000000E2
(1654094104.562096) can0 0CBE1101#21CCCDCECF0000E2
(1654094104.562338) can0 32E#014B4B000000004B
(1654094104.563230) can0 0CBE0111#058100000000E2CC
(1654094104.566833) can0 0CBE1101#10230100000000F8
(1654094104.567622) can0 0CBE1101#213031363744454C
(1654094104.568356) can0 0CBE1101#224D4E4F50515A5B
(1654094104.569124) can0 0CBE1101#235C5D646A6B7C7D
(1654094104.569874) can0 0CBE1101#249E9FA0A1D8D9DA
(1654094104.570586) can0 0CBE1101#25DB9FA0A1D8D9DA
(1654094104.571538) can0 0CBE0111#101E81FEFF1F54FE
(1654094104.571870) can0 0CBE0111#214BF490967FE0FA
(1654094104.572113) can0 32E#014B4B000000004B
(1654094104.572386) can0 0CBE0111#220000EE8EF09C4E
(1654094104.572870) can0 0CBE0111#230000F5A82E0E00
(1654094104.573234) can0 0CBE0111#24800080A1D8D9DA
(1654094104.579759) can0 0CBE1101#100A0100000000F9
(1654094104.580623) can0 0CBE1101#21BABBBCBD0000F9
(1654094104.581332) can0 32E#014B4B000000004B
(1654094104.581846) can0 0CBE0111#058100000000F9BA
(1654094104.585211) can0 0CBE1101#10090100000000FA
(1654094104.585896) can0 0CBE1101#2164656C000000FA
(1654094104.587171) can0 0CBE0111#048100000000FA64
(1654094104.591265) can0 0CBE1101#100E0100000000FD
(1654094104.591507) can0 32E#014B4B000000004B
(1654094104.591919) can0 0CBE1101#2120242526404243
(1654094104.592621) can0 0CBE1101#224D242526404243
(1654094104.593819) can0 0CBE0111#1009814004000080
(1654094104.594141) can0 0CBE0111#2184C04026404243
(1654094104.596904) can0 0CBE1101#100A010000000012
(1654094104.597659) can0 0CBE1101#216667A8A9000012
(1654094104.598791) can0 0CBE0111#0581AAAA10001266
(1654094104.601322) can0 32E#014B4B000000004B
(1654094104.602349) can0 0CBE1101#100901000000001A
(1654094104.603153) can0 0CBE1101#21525C5D0000001A
(1654094104.604118) can0 0CBE0111#0481800000001A52
(1654094104.608220) can0 0CBE1101#100A0100000000E2
(1654094104.608942) can0 0CBE1101#21CCCDCECF0000E2
(1654094104.610099) can0 0CBE0111#058100000000E2CC
(1654094104.611284) can0 32E#014B4B000000004B
(1654094104.613738) can0 0CBE1101#10230100000000F8
(1654094104.614435) can0 0CBE1101#213031363744454C
(1654094104.615194) can0 0CBE1101#224D4E4F50515A5B
(1654094104.615964) can0 0CBE1101#235C5D646A6B7C7D
(1654094104.616692) can0 0CBE1101#249E9FA0A1D8D9DA
(1654094104.617419) can0 0CBE1101#25DB9FA0A1D8D9DA
(1654094104.618407) can0 0CBE0111#101E81FEFFEF53FE
(1654094104.618740) can0 0CBE0111#214BF490B27FE0FA
(1654094104.619068) can0 0CBE0111#220000EE8EF09C4E
(1654094104.619408) can0 0CBE0111#230000F5A82E0E00
(1654094104.619734) can0 0CBE0111#24800080A1D8D9DA
(1654094104.621485) can0 32E#014B4B000000004B
(1654094104.625675) can0 0CBE1101#100A0100000000F9
(1654094104.626448) can0 0CBE1101#21BABBBCBD0000F9
(1654094104.627720) can0 0CBE0111#058100000000F9BA
(1654094104.631265) can0 0CBE1101#10090100000000FA
(1654094104.631982) can0 0CBE1101#2164656C000000FA
(1654094104.632223) can0 32E#014B4B000000004B
(1654094104.633038) can0 0CBE0111#048100000000FA64
(1654094104.636823) can0 0CBE1101#100E0100000000FD
(1654094104.637476) can0 0CBE1101#2120242526404243
(1654094104.638202) can0 0CBE1101#224D242526404243
(1654094104.639359) can0 0CBE0111#1009814004000080
(1654094104.639680) can0 0CBE0111#2184C04026404243
(1654094104.641513) can0 32E#014B4B000000004B
(1654094104.642322) can0 0CBE1101#100A010000000012
(1654094104.642987) can0 0CBE1101#216667A8A9000012
(1654094104.644006) can0 0CBE0111#0581AAAA10001266
(1654094104.648228) can0 0CBE1101#100901000000001A
(1654094104.648983) can0 0CBE1101#21525C5D0000001A
(1654094104.649989) can0 0CBE0111#0481800000001A52
(1654094104.651347) can0 32E#014B4B000000004B
(1654094104.654325) can0 0CBE1101#100A0100000000E2
(1654094104.654993) can0 0CBE1101#21CCCDCECF0000E2
(1654094104.655981) can0 0CBE0111#058100000000E2CC
(1654094104.660504) can0 0CBE1101#10230100000000F8
(1654094104.661273) can0 0CBE1101#213031363744454C
(1654094104.661515) can0 32E#014B4B000000004B
(1654094104.662027) can0 0CBE1101#224D4E4F50515A5B
(1654094104.662765) can0 0CBE1101#235C5D646A6B7C7D
(1654094104.663525) can0 0CBE1101#249E9FA0A1D8D9DA
(1654094104.664254) can0 0CBE1101#25DB9FA0A1D8D9DA
(1654094104.665286) can0 0CBE0111#101E81FEFF1F54FE
(1654094104.665609) can0 0CBE0111#214BF490967FE0FA
(1654094104.665939) can0 0CBE0111#220000EE8EF0B44E
(1654094104.666277) can0 0CBE0111#230000F5A82E0E00
(1654094104.666605) can0 0CBE0111#24800080A1D8D9DA
(1654094104.671444) can0 32E#014B4B000000004B
(1654094104.672484) can0 0CBE1101#100A0100000000F9
(1654094104.673280) can0 0CBE1101#21BABBBCBD0000F9
(1654094104.674258) can0 0CBE0111#058100000000F9BA
(1654094104.678063) can0 0CBE1101#10090100000000FA
(1654094104.678792) can0 0CBE1101#2164656C000000FA
(1654094104.679908) can0 0CBE0111#048100000000FA64
(1654094104.681550) can0 32E#014B4B000000004B
(1654094104.683566) can0 0CBE1101#100E0100000000FD
(1654094104.684309) can0 0CBE1101#2120242526404243
(1654094104.685040) can0 0CBE1101#224D242526404243
(1654094104.686228) can0 0CBE0111#1009814004000080
(1654094104.686552) can0 0CBE0111#2184C04026404243
(1654094104.689347) can0 0CBE1101#100A010000000012
(1654094104.690058) can0 0CBE1101#216667A8A9000012
(1654094104.691202) can0 0CBE0111#0581AAAA10001266
(1654094104.692057) can0 32E#014B4B000000004B
(1654094104.695052) can0 0CBE1101#100901000000001A
(1654094104.695808) can0 0CBE1101#21525C5D0000001A
(1654094104.696859) can0 0CBE0111#0481800000001A52
(1654094104.701217) can0 0CBE1101#100A0100000000E2
(1654094104.701618) can0 32E#014B4B000000004B
(1654094104.702084) can0 0CBE1101#21CCCDCECF0000E2
(1654094104.703174) can0 0CBE0111#058100000000E2CC
(1654094104.706733) can0 0CBE1101#10230100000000F8
(1654094104.707613) can0 0CBE1101#213031363744454C
(1654094104.708341) can0 0CBE1101#224D4E4F50515A5B
(1654094104.709103) can0 0CBE1101#235C5D646A6B7C7D
(1654094104.709839) can0 0CBE1101#249E9FA0A1D8D9DA
(1654094104.710567) can0 0CBE1101#25DB9FA0A1D8D9DA
(1654094104.711533) can0 32E#014B4B000000004B
